# Caring Caribou dump file
# 2024-07-18 18:45:23.346795
# /usr/local/bin/caringcaribou dump -c -f horn.txt
(1721324723.373444) can0 0CF00311#dd0000ffffffffff
(1721324723.374030) can0 0CFF0211#fc602d00000000ff
(1721324723.375392) can0 18F0090B#fb6860077e1f7d7d
(1721324723.375950) can0 0CEF0B2A#7ecdce00fcfaff1f
(1721324723.376508) can0 1CEBFF00#03cec02bffff0d0c
(1721324723.377361) can0 0CF00400#0e7d7d0000000f7d
(1721324723.379299) can0 0CF00203#cc0000fff00000ff
(1721324723.379888) can0 08F06203#ffffffff7f7dffff
(1721324723.380468) can0 0CF02903#708a7dffffffffff
(1721324723.381060) can0 18FEF000#ffffffffffffffff
(1721324723.381645) can0 0CFF0B17#ff0000003ff8ffff
(1721324723.383023) can0 18FF4003#7cfc3f00fa0345fc
(1721324723.383687) can0 0CFF0211#fc602d00000000ff
(1721324723.385460) can0 08FE6E0B#0000000000000000
(1721324723.386030) can0 0CF00300#d3ff00ffff1f647d
(1721324723.386593) can0 10FE6F2A#ffff00d0007d00ff
(1721324723.387157) can0 18F0090B#fb6860077e1f7d7d
(1721324723.389279) can0 0CF00203#cc0000fff00000ff
(1721324723.389862) can0 10F007E8#00ff00ffffffffff
(1721324723.390436) can0 08F06203#ffffffff7f7dffff
(1721324723.391010) can0 18FF102A#ff00ffff00403ff3
(1721324723.391574) can0 0CF02903#708a7dffffffffff
(1721324723.392154) can0 0CFF2B17#fffffffffffdffff
(1721324723.392741) can0 18FF5400#ffff11f1fcffffff
(1721324723.393311) can0 18FEDF00#7da0287d7dfffff0
(1721324723.393891) can0 0CFF0211#fc602d00000000ff
(1721324723.395449) can0 18F0090B#fb6860077e177d7d
(1721324723.396020) can0 0CEF0B2A#7ecdce00fcfaffc0
(1721324723.397392) can0 0CF00400#0e7d7d0000000f7d
(1721324723.399303) can0 0CF00203#cc0000fff00000ff
(1721324723.399895) can0 08F06203#ffffffff7f7dffff
(1721324723.400475) can0 0CF02903#708a7dffffffffff
(1721324723.401047) can0 18FDB400#28250c25ffffffff
(1721324723.401638) can0 0CF00A00#00000000ffffffff
(1721324723.402225) can0 18FEF100#ff0000fcff001fcf
(1721324723.403591) can0 18FEF111#c700000700ffffc0
(1721324723.404165) can0 0CFF0211#fc602d00000000ff
(1721324723.405482) can0 08FE6E0B#0000000000000000
(1721324723.406049) can0 0CF00300#d3ff00ffff1f647d
(1721324723.406614) can0 0CF02F2A#04f8fff0ffffffff
(1721324723.407164) can0 18F0090B#fb6860077e177d7d
(1721324723.407747) can0 0CFF83AE#fffffcffffffffff
(1721324723.408319) can0 18A9E8D1#fdfffffffffffffd
(1721324723.408882) can0 18F0010B#000013ffff410b3f
(1721324723.409459) can0 0CF00203#cc0000fff00000ff
(1721324723.410047) can0 10F007D1#ffff0fffffffffff
(1721324723.410617) can0 08F06203#ffffffff7f7dffff
(1721324723.411190) can0 18FEDF00#7da0287d7dfffff0
(1721324723.411754) can0 0CF02903#708a7dffffffffff
(1721324723.412339) can0 0CFF3F17#fffffffffffaffff
(1721324723.412929) can0 0CFF8317#3fffe7ffffffffff
(1721324723.413512) can0 18FE5817#ffffffff0c000c00
(1721324723.414087) can0 0CFF0211#fc602d00000000ff
(1721324723.414675) can0 18F00111#ffffffff00ffffff
(1721324723.415254) can0 18FEF011#fffffffffff1ccff
(1721324723.415807) can0 0CEF0B2A#7ecdce00fcfaff11
(1721324723.416357) can0 18F0090B#fb6860077e177d7d
(1721324723.416928) can0 18FEE000#cf060000cd060000
(1721324723.417509) can0 18FEBF0B#00007d7d7d7dffff
(1721324723.418087) can0 0CF00400#0e7d7d0000000f7d
(1721324723.418658) can0 18FE4F0B#c100ffffffffffff
(1721324723.419248) can0 18FDC40B#1c0019ffffffffff
(1721324723.419818) can0 0CF00203#cc0000fff00000ff
(1721324723.420410) can0 08F06203#ffffffff7f7dffff
(1721324723.420986) can0 18FDB300#ffff2c25ffffffff
(1721324723.421550) can0 0CF02903#708a7dffffffffff
(1721324723.423640) can0 0CF00311#dd0000ffffffffff
(1721324723.424215) can0 0CFF0211#fc602d00000000ff
(1721324723.425426) can0 08FE6E0B#0000000000000000
(1721324723.425997) can0 0CF00300#d3ff00ffff1f647d
(1721324723.426546) can0 18F0090B#fb6860077e177d7d
(1721324723.427131) can0 18FC9600#0000ffffffffffff
(1721324723.427702) can0 18F0000F#f07d7df30fffff59
(1721324723.429336) can0 0CF00203#cc0000fff00000ff
(1721324723.429928) can0 08F06203#ffffffff7f7dffff
(1721324723.430507) can0 0CF02903#708a7dffffffffff
(1721324723.431089) can0 18FF5400#ffff11f1fcffffff
(1721324723.431662) can0 18FEDF00#7da0287d7dfffff0
(1721324723.432220) can0 1CEBFF00#04204e3c3c8c7dcd
(1721324723.433122) can0 18FF4003#7cfc3f00fa0345fc
(1721324723.433708) can0 0CFF0211#fc602d00000000ff
(1721324723.434278) can0 18FDA403#ffffffffffffffff
(1721324723.434853) can0 18F00503#7d00007d204e204e
(1721324723.435425) can0 18FE4A03#ffdd3f7d0f37f8ff
(1721324723.435977) can0 0CEF0B2A#7ecdce00fcfaff82
(1721324723.436553) can0 0CF0D300#007df0fbfbff14ff
(1721324723.437130) can0 0CF0FA03#ffffffff03fcffff
(1721324723.437708) can0 0CF00400#0e7d7d0000000f7d
(1721324723.438259) can0 18F0090B#fb6860077e177d7d
(1721324723.438838) can0 18FF4103#2e09de0dffffffff
(1721324723.439430) can0 18FFA003#fc3f00fcffff3b7e
(1721324723.440018) can0 10F007E8#00ff00ffffffffff
(1721324723.440619) can0 18FAD303#ffffffffffffffff
(1721324723.441201) can0 0CF00203#cc0000fff00000ff
(1721324723.441785) can0 0CFF2B17#fffffffffffdffff
(1721324723.442355) can0 08F06203#ffffffff7f7dffff
(1721324723.442934) can0 0CF02903#708a7dffffffffff
(1721324723.443770) can0 0CFF0211#fc602d00000000ff
(1721324723.445476) can0 08FE6E0B#0000000000000000
(1721324723.446045) can0 0CF00300#d3ff00ffff1f647d
(1721324723.446594) can0 18F0090B#fb6860077e177d7d
(1721324723.449309) can0 0CF00203#cc0000fff00000ff
(1721324723.449896) can0 08F06203#ffffffff7f7dffff
(1721324723.450473) can0 0CF02903#708a7dffffffffff
(1721324723.451047) can0 18FEDF00#7da0287d7dfffff0
(1721324723.451637) can0 0CF00A00#00000000ffffffff
(1721324723.452216) can0 18FEF200#0000fffa2103faff
(1721324723.453531) can0 0CFF0211#fc602d00000000ff
(1721324723.455367) can0 18F0090B#fb6860077e177d7d
(1721324723.455916) can0 0CEF0B2A#7ecdce00fcfaff93
(1721324723.456480) can0 0CF02F2A#04f8fff0ffffffff
(1721324723.457403) can0 0CF00400#0e7d7d0000000f7d
(1721324723.457987) can0 0CFF83AE#fffffcffffffffff
(1721324723.459301) can0 0CF00203#cc0000fff00000ff
(1721324723.459880) can0 10F007D1#ffff0fffffffffff
(1721324723.460456) can0 08F06203#ffffffff7f7dffff
(1721324723.461045) can0 0C0A002A#c0ffffffffffffff
(1721324723.461607) can0 0CF02903#708a7dffffffffff
(1721324723.463704) can0 18FECAE8#c0ff00000000ffff
(1721324723.464273) can0 0CFF0211#fc602d00000000ff
(1721324723.464849) can0 18FE5BE8#43fffffcfcff01ff
(1721324723.465433) can0 08FE6E0B#0000000000000000
(1721324723.466004) can0 0CF00300#d3ff00ffff1f647d
(1721324723.466564) can0 18F0090B#fb6860077e0f7d7d
(1721324723.467121) can0 18FF21E8#0f0f000340f0ff30
(1721324723.469273) can0 0CF00203#cc0000fff00000ff
(1721324723.469867) can0 08F06203#ffffffff7f7dffff
(1721324723.470445) can0 0CF02903#708a7dffffffffff
(1721324723.471026) can0 18FF5400#ffff11f1fcffffff
(1721324723.471594) can0 18FEC117#a7b10000ffffffff
(1721324723.472171) can0 18FEDF00#7da0287d7dfffff0
(1721324723.472754) can0 18F00100#ffffffffffffffff
(1721324723.473546) can0 0CF00311#dd0000ffffffffff
(1721324723.474116) can0 0CFF0211#fc602d00000000ff
(1721324723.475462) can0 18F0090B#fb6860077e0f7d7d
(1721324723.476014) can0 0CEF0B2A#7ecdce00fcfafff4
(1721324723.477333) can0 0CF00400#0e7d7d0000000f7d
(1721324723.479337) can0 0CF00203#cc0000fff00000ff
(1721324723.479927) can0 08F06203#ffffffff7f7dffff
(1721324723.480509) can0 0CF02903#708a7dffffffffff
(1721324723.481099) can0 18FEF000#ffffffffffffffff
(1721324723.481683) can0 0CFF0B17#ff0000003ff8ffff
(1721324723.483061) can0 18FF4003#7cfc3f00fa0345fc
(1721324723.483636) can0 0CFF0211#fc602d00000000ff
(1721324723.485472) can0 08FE6E0B#0000000000000000
(1721324723.486042) can0 0CF00300#d3ff00ffff1f647d
(1721324723.486603) can0 10FE6F2A#ffff00d0007d00ff
(1721324723.487166) can0 18F0090B#fb6860077e0f7d7d
(1721324723.487731) can0 1CEBFF00#05c02ba5010a04ff
(1721324723.489295) can0 0CF00203#cc0000fff00000ff
(1721324723.489885) can0 10F007E8#00ff00ffffffffff
(1721324723.490458) can0 08F06203#ffffffff7f7dffff
(1721324723.491030) can0 18FEDF00#7da0287d7dfffff0
(1721324723.491595) can0 0CF02903#708a7dffffffffff
(1721324723.492179) can0 0CFF2B17#fffffffffffdffff
(1721324723.492752) can0 18FF102A#ff00ffff00403ff3
(1721324723.493618) can0 0CFF0211#fc602d00000000ff
(1721324723.495438) can0 18F0090B#fb6860077e0f7d7d
(1721324723.495983) can0 0CEF0B2A#7ecdce00fcfaff85
(1721324723.497319) can0 0CF00400#0e7d7d0000000f7d
(1721324723.499288) can0 0CF00203#cc0000fff00000ff
(1721324723.499876) can0 08F06203#ffffffff7f7dffff
(1721324723.500456) can0 0CF02903#708a7dffffffffff
(1721324723.501104) can0 0CF00A00#00000000ffffffff
(1721324723.501688) can0 18FEF100#ff0000fcff001fcf
(1721324723.503547) can0 18FEF111#c700000700ffffc0
(1721324723.504125) can0 0CFF0211#fc602d00000000ff
(1721324723.505437) can0 08FE6E0B#0000000000000000
(1721324723.506006) can0 0CF00300#d3ff00ffff1f647d
(1721324723.506569) can0 0CF02F2A#04f8fff0ffffffff
(1721324723.507141) can0 18A9E8D1#fdfffffffffffffd
(1721324723.507725) can0 0CFF83AE#fffffcffffffffff
(1721324723.508289) can0 18F0090B#fb6860077e0f7d7d
(1721324723.508856) can0 18F0010B#000013ffff410b3f
(1721324723.509432) can0 0CF00203#cc0000fff00000ff
(1721324723.510042) can0 08F06203#ffffffff7f7dffff
(1721324723.510607) can0 0CF02903#708a7dffffffffff
(1721324723.511187) can0 18FF5400#ffff11f1fcffffff
(1721324723.511770) can0 0CFF3F17#fffffffffffaffff
(1721324723.512350) can0 10F007D1#ffff0fffffffffff
(1721324723.512938) can0 0CFF8317#3fffe7ffffffffff
(1721324723.513510) can0 18FEDF00#7da0287d7dfffff0
(1721324723.514084) can0 0CFF0211#fc602d00000000ff
(1721324723.514658) can0 18FE5817#ffffffff0c000c00
(1721324723.515234) can0 18F00111#ffffffff00ffffff
(1721324723.515803) can0 0CEF0B2A#7ecdce00fcfaff96
(1721324723.516351) can0 18F0090B#fb6860077e0f7d7d
(1721324723.516922) can0 18FEE000#cf060000cd060000
(1721324723.517505) can0 18FEBF0B#00007d7d7d7dffff
(1721324723.518080) can0 0CF00400#0e7d7d0000000f7d
(1721324723.518654) can0 18FE4F0B#c100ffffffffffff
(1721324723.519219) can0 18FEF011#fffffffffff1ccff
(1721324723.519795) can0 0CF00203#cc0000fff00000ff
(1721324723.520375) can0 18FDC40B#1c0019ffffffffff
(1721324723.520949) can0 08F06203#ffffffff7f7dffff
(1721324723.521528) can0 0CF02903#708a7dffffffffff
(1721324723.523654) can0 0CF00311#dd0000ffffffffff
(1721324723.524237) can0 0CFF0211#fc602d00000000ff
(1721324723.525401) can0 08FE6E0B#0000000000000000
(1721324723.525971) can0 0CF00300#d3ff00ffff1f647d
(1721324723.526520) can0 18F0090B#fb6860077e177d7d
(1721324723.527105) can0 18FC9600#0000ffffffffffff
(1721324723.527677) can0 18F0000F#f07d7df30fffff59
(1721324723.529306) can0 0CF00203#cc0000fff00000ff
(1721324723.529907) can0 08F06203#ffffffff7f7dffff
(1721324723.530478) can0 0CF02903#708a7dffffffffff
(1721324723.531050) can0 18FEDF00#7da0287d7dfffff0
(1721324723.533098) can0 18FF4003#7cfc3f00fa0345fc
(1721324723.533670) can0 0CFF0211#fc602d00000000ff
(1721324723.534234) can0 18FECA03#c7ffcf040904ffff
(1721324723.534834) can0 18FDA403#ffffffffffffffff
(1721324723.535409) can0 18F00503#7d00007d204e204e
(1721324723.535962) can0 0CEF0B2A#7ecdce00fcfaff97
(1721324723.536540) can0 0CF0D300#007df0fbfbff14ff
(1721324723.537090) can0 18F0090B#fb6860077e177d7d
(1721324723.537665) can0 0CF00400#0e7d7d0000000f7d
(1721324723.538227) can0 18FE4A03#ffdd3f7d0f37f8ff
(1721324723.538818) can0 0CF0FA03#ffffffff03fcffff
(1721324723.539415) can0 18FF4103#2e09de0dffffffff
(1721324723.540002) can0 10F007E8#00ff00ffffffffff
(1721324723.540578) can0 18FFA003#fc3f00fcffff3b7e
(1721324723.541173) can0 1CEBFF00#06ffffffffa0ffff
(1721324723.541757) can0 0CFF2B17#fffffffffffdffff
(1721324723.542342) can0 18FAD303#ffffffffffffffff
(1721324723.542934) can0 0CF00203#cc0000fff00000ff
(1721324723.543526) can0 08F06203#ffffffff7f7dffff
(1721324723.544097) can0 0CFF0211#fc602d00000000ff
(1721324723.544661) can0 0CF02903#708a7dffffffffff
(1721324723.545743) can0 0CF00300#d3ff00ffff1f647d
(1721324723.546325) can0 08FE6E0B#0000000000000000
(1721324723.546882) can0 18F0090B#fb6860077e177d7d
(1721324723.549326) can0 0CF00203#cc0000fff00000ff
(1721324723.549920) can0 08F06203#ffffffff7f7dffff
(1721324723.550502) can0 0CF02903#708a7dffffffffff
(1721324723.551082) can0 18FF5400#ffff11f1fcffffff
(1721324723.551659) can0 18FEDF00#7da0287d7dfffff0
(1721324723.552250) can0 0CF00A00#00000000ffffffff
(1721324723.552834) can0 18FEF200#0000fffa2003faff
(1721324723.553594) can0 0CFF0211#fc602d00000000ff
(1721324723.555413) can0 18F0090B#fb6860077e177d7d
(1721324723.555960) can0 0CEF0B2A#7ecdce00fcfaff58
(1721324723.556524) can0 0CF02F2A#04f8fff0ffffffff
(1721324723.557436) can0 0CF00400#0e7d7d0000000f7d
(1721324723.558025) can0 0CFF83AE#fffffcffffffffff
(1721324723.559347) can0 0CF00203#cc0000fff00000ff
(1721324723.559939) can0 08F06203#ffffffff7f7dffff
(1721324723.560519) can0 0CF02903#708a7dffffffffff
(1721324723.561103) can0 0C0A002A#c0ffffffffffffff
(1721324723.561683) can0 0CFD9200#f0ffffffffffffff
(1721324723.562259) can0 18FE5117#5fffffffffffffff
(1721324723.563385) can0 10F007D1#ffff0fffffffffff
(1721324723.563957) can0 0CFF0211#fc602d00000000ff
(1721324723.564531) can0 18FE5BE8#43fffffcfcff01ff
(1721324723.565089) can0 18FF21E8#0f0f000340f0ff30
(1721324723.565673) can0 08FE6E0B#0000000000000000
(1721324723.566241) can0 0CF00300#d3ff00ffff1f647d
(1721324723.566792) can0 18F0090B#fb6860077e177d7d
(1721324723.569265) can0 0CF00203#cc0000fff00000ff
(1721324723.569868) can0 08F06203#ffffffff7f7dffff
(1721324723.570454) can0 0CF02903#708a7dffffffffff
(1721324723.571024) can0 18FEDF00#7da0287d7dfffff0
(1721324723.571611) can0 18F00100#ffffffffffffffff
(1721324723.573458) can0 0CF00311#dd0000ffffffffff
(1721324723.574035) can0 0CFF0211#fc602d00000000ff
(1721324723.574607) can0 0CFF2811#ffffffff0f3fff00
(1721324723.575418) can0 18F0090B#fb6860077e177d7d
(1721324723.575967) can0 0CEF0B2A#7ecdce00fcfaffd9
(1721324723.577390) can0 0CF00400#0e7d7d0000000f7d
(1721324723.579294) can0 0CF00203#cc0000fff00000ff
(1721324723.579876) can0 18FECAD1#00ff00000000ffff
(1721324723.580451) can0 08F06203#ffffffff7f7dffff
(1721324723.581043) can0 18FEF000#ffffffffffffffff
(1721324723.581621) can0 0CF02903#708a7dffffffffff
(1721324723.582194) can0 0CFF0B17#ff0000003ff8ffff
(1721324723.583027) can0 18FF4003#7cfc3f00fa0345fc
(1721324723.583753) can0 0CFF0211#fc602d00000000ff
(1721324723.585480) can0 08FE6E0B#0000000000000000
(1721324723.586045) can0 0CF00300#d3ff00ffff1f647d
(1721324723.586610) can0 10FE6F2A#ffff00d0007d00ff
(1721324723.587161) can0 18F0090B#fb6860077e177d7d
(1721324723.589285) can0 0CF00203#cc0000fff00000ff
(1721324723.589875) can0 10F007E8#00ff00ffffffffff
(1721324723.590451) can0 08F06203#ffffffff7f7dffff
(1721324723.591024) can0 18FF102A#ff00ffff00403ff3
(1721324723.591588) can0 0CF02903#708a7dffffffffff
(1721324723.592169) can0 0CFF2B17#fffffffffffdffff
(1721324723.592751) can0 18FF5400#ffff11f1fcffffff
(1721324723.593322) can0 18FEFA17#005e5effffffffff
(1721324723.593895) can0 0CFF0211#fc602d00000000ff
(1721324723.594467) can0 18FEDF00#7da0287d7dfffff0
(1721324723.595537) can0 0CEF0B2A#7ecdce00fcfaff5a
(1721324723.596088) can0 18F0090B#fb6860077e177d7d
(1721324723.597364) can0 0CF00400#0e7d7d0000000f7d
(1721324723.599315) can0 0CF00203#cc0000fff00000ff
(1721324723.599905) can0 08F06203#ffffffff7f7dffff
(1721324723.600484) can0 0CF02903#708a7dffffffffff
(1721324723.601075) can0 18FCDC00#82fefefd00000000
(1721324723.601665) can0 0CF00A00#00000000ffffffff
(1721324723.602251) can0 18FEF100#ff0000fcff001fcf
(1721324723.603617) can0 18FEF111#c700000700ffffc0
(1721324723.604194) can0 0CFF0211#fc602d00000000ff
(1721324723.605480) can0 08FE6E0B#0000000000000000
(1721324723.606041) can0 0CF02F2A#04f8fff0ffffffff
(1721324723.606626) can0 14FC9800#ff000000000000ff
(1721324723.607199) can0 18A9E8D1#fdfffffffffffffd
(1721324723.607765) can0 0CF00300#d3ff00ffff1f647d
(1721324723.608355) can0 0CFF83AE#fffffcffffffffff
(1721324723.608902) can0 18F0090B#fb6860077e177d7d
(1721324723.609477) can0 0CF00203#cc0000fff00000ff
(1721324723.610044) can0 18F0010B#000013ffff410b3f
(1721324723.610617) can0 08F06203#ffffffff7f7dffff
(1721324723.611192) can0 18FEDF00#7da0287d7dfffff0
(1721324723.611754) can0 0CF02903#708a7dffffffffff
(1721324723.612338) can0 0CFF3F17#fffffffffffaffff
(1721324723.612929) can0 0CFF8317#3fffe7ffffffffff
(1721324723.613513) can0 18FE5817#ffffffff0c000c00
(1721324723.614089) can0 0CFF0211#fc602d00000000ff
(1721324723.614670) can0 10F007D1#ffff0fffffffffff
(1721324723.615245) can0 18F00111#ffffffff00ffffff
(1721324723.615804) can0 0CEF0B2A#7ecdce00fcfafffb
(1721324723.616350) can0 18F0090B#fb6860077e177d7d
(1721324723.616921) can0 18FEE000#cf060000cd060000
(1721324723.617501) can0 18FEBF0B#00007d7d7d7dffff
(1721324723.618078) can0 0CF00400#0e7d7d0000000f7d
(1721324723.618649) can0 18FE4F0B#c100ffffffffffff
(1721324723.619231) can0 18FEF011#fffffffffff1ccff
(1721324723.619795) can0 0CF00203#cc0000fff00000ff
(1721324723.620374) can0 18FDC40B#1c0019ffffffffff
(1721324723.620953) can0 08F06203#ffffffff7f7dffff
(1721324723.621531) can0 0CF02903#708a7dffffffffff
(1721324723.623754) can0 0CF00311#dd0000ffffffffff
(1721324723.624333) can0 0CFF0211#fc602d00000000ff
(1721324723.625398) can0 08FE6E0B#0000000000000000
(1721324723.625969) can0 0CF00300#d3ff00ffff1f647d
(1721324723.626518) can0 18F0090B#fb6860077e177d7d
(1721324723.627105) can0 18FC9600#0000ffffffffffff
(1721324723.627675) can0 18F0000F#f07d7df30fffff59
(1721324723.629314) can0 0CF00203#cc0000fff00000ff
(1721324723.629905) can0 08F06203#ffffffff7f7dffff
(1721324723.630489) can0 0CF02903#708a7dffffffffff
(1721324723.631067) can0 18FF5400#ffff11f1fcffffff
(1721324723.631641) can0 18FEDF00#7da0287d7dfffff0
(1721324723.633083) can0 18FF4003#7cfc3f00fa0345fc
(1721324723.633653) can0 0CFF0211#fc602d00000000ff
(1721324723.634240) can0 18FDA403#ffffffffffffffff
(1721324723.634814) can0 18F00503#7d00007d204e204e
(1721324723.635386) can0 18FE4A03#ffdd3f7d0f37f8ff
(1721324723.635938) can0 0CEF0B2A#7ecdce00fcfaff1c
(1721324723.636514) can0 0CF0D300#007df0fbfbff14ff
(1721324723.637089) can0 0CF0FA03#ffffffff03fcffff
(1721324723.637666) can0 0CF00400#0e7d7d0000000f7d
(1721324723.638220) can0 18F0090B#fb6860077e177d7d
(1721324723.638797) can0 18FECA9F#00ff00000000ffff
(1721324723.639380) can0 18FF4103#2e09de0dffffffff
(1721324723.639965) can0 10F007E8#00ff00ffffffffff
(1721324723.640543) can0 18FFA003#fc3f00fcffff3b7e
(1721324723.641131) can0 19FF479F#f0ffffffffffffff
(1721324723.641707) can0 0CFF2B17#fffffffffffdffff
(1721324723.642292) can0 18FAD303#ffffffffffffffff
(1721324723.642881) can0 0CF00203#cc0000fff00000ff
(1721324723.643473) can0 08F06203#ffffffff7f7dffff
(1721324723.644047) can0 0CFF0211#fc602d00000000ff
(1721324723.644616) can0 0CF02903#708a7dffffffffff
(1721324723.645742) can0 0CF00300#d3ff00ffff1f647d
(1721324723.646322) can0 08FE6E0B#0000000000000000
(1721324723.646878) can0 18F0090B#fb6860077e177d7d
(1721324723.649301) can0 0CF00203#cc0000fff00000ff
(1721324723.649896) can0 08F06203#ffffffff7f7dffff
(1721324723.650485) can0 0CF02903#708a7dffffffffff
(1721324723.651045) can0 18FEDF00#7da0287d7dfffff0
(1721324723.651638) can0 0CF00A00#00000000ffffffff
(1721324723.652220) can0 18FEF200#0000fffa2003faff
(1721324723.652797) can0 18FEEF00#ffffff00fe7cfffa
(1721324723.653682) can0 0CFF0211#fc602d00000000ff
(1721324723.655406) can0 18F0090B#fb6860077e177d7d
(1721324723.655950) can0 0CEF0B2A#7ecdce00fcfaff5d
(1721324723.656512) can0 0CF02F2A#04f8fff0ffffffff
(1721324723.657345) can0 0CF00400#0e7d7d0000000f7d
(1721324723.657932) can0 0CFF83AE#fffffcffffffffff
(1721324723.659300) can0 0CF00203#cc0000fff00000ff
(1721324723.659889) can0 08F06203#ffffffff7f7dffff
(1721324723.660465) can0 0CF02903#708a7dffffffffff
(1721324723.661052) can0 0C0A002A#c0ffffffffffffff
(1721324723.663660) can0 0CFF0211#fc602d00000000ff
(1721324723.664234) can0 18FE5BE8#43fffffcfcff01ff
(1721324723.664789) can0 18FF21E8#0f0f000340f0ff30
(1721324723.665376) can0 08FE6E0B#0000000000000000
(1721324723.665944) can0 0CF00300#d3ff00ffff1f647d
(1721324723.666493) can0 18F0090B#fb6860077e177d7d
(1721324723.667076) can0 10F007D1#ffff0fffffffffff
(1721324723.669284) can0 0CF00203#cc0000fff00000ff
(1721324723.669865) can0 08F06203#ffffffff7f7dffff
(1721324723.670445) can0 0CF02903#708a7dffffffffff
(1721324723.671023) can0 18FF5400#ffff11f1fcffffff
(1721324723.671598) can0 18FEDF00#7da0287d7dfffff0
(1721324723.672186) can0 18F00100#ffffffffffffffff
(1721324723.672765) can0 18FEF600#ff004131ffffffff
(1721324723.673650) can0 0CF00311#dd0000ffffffffff
(1721324723.674216) can0 0CFF0211#fc602d00000000ff
(1721324723.675440) can0 18F0090B#fb6860077e177d7d
(1721324723.675999) can0 0CEF0B2A#7ecdce00fcfafffe
(1721324723.677369) can0 0CF00400#0e7d7d0000000f7d
(1721324723.679341) can0 0CF00203#cc0000fff00000ff
(1721324723.679932) can0 08F06203#ffffffff7f7dffff
(1721324723.680512) can0 0CF02903#708a7dffffffffff
(1721324723.681101) can0 18FEF000#ffffffffffffffff
(1721324723.681685) can0 0CFF0B17#ff0000003ff8ffff
(1721324723.683063) can0 18FF4003#7cfc3f00fa0345fc
(1721324723.683794) can0 0CFF0211#fc602d00000000ff
(1721324723.685478) can0 08FE6E0B#0000000000000000
(1721324723.686046) can0 0CF00300#d3ff00ffff1f647d
(1721324723.686609) can0 10FE6F2A#ffff00d0007d00ff
(1721324723.687160) can0 18F0090B#fb6860077e177d7d
(1721324723.689285) can0 0CF00203#cc0000fff00000ff
(1721324723.689873) can0 10F007E8#00ff00ffffffffff
(1721324723.690449) can0 08F06203#ffffffff7f7dffff
(1721324723.691020) can0 18FEDF00#7da0287d7dfffff0
(1721324723.691585) can0 0CF02903#708a7dffffffffff
(1721324723.692164) can0 0CFF2B17#fffffffffffdffff
(1721324723.692746) can0 18FDC600#ff00ffffffffffff
(1721324723.693321) can0 18FF102A#ff00ffff00403ff3
(1721324723.693894) can0 0CFF0211#fc602d00000000ff
(1721324723.695450) can0 18F0090B#fb6860077e177d7d
(1721324723.696009) can0 0CEF0B2A#7ecdce00fcfaff1f
(1721324723.697373) can0 0CF00400#0e7d7d0000000f7d
(1721324723.699290) can0 0CF00203#cc0000fff00000ff
(1721324723.699883) can0 08F06203#ffffffff7f7dffff
(1721324723.700462) can0 0CF02903#708a7dffffffffff
(1721324723.701085) can0 0CF00A00#00000000ffffffff
(1721324723.701669) can0 18FEF100#ff0000fcff001fcf
(1721324723.703593) can0 18FEF111#c700000700ffffc0
(1721324723.704170) can0 0CFF0211#fc602d00000000ff
(1721324723.705448) can0 08FE6E0B#0000000000000000
(1721324723.706017) can0 0CF00300#d3ff00ffff1f647d
(1721324723.706577) can0 0CF02F2A#04f8fff0ffffffff
(1721324723.707152) can0 18A9E8D1#fdfffffffffffffd
(1721324723.707736) can0 0CFF83AE#fffffcffffffffff
(1721324723.708287) can0 18F0090B#fb6860077e177d7d
(1721324723.708857) can0 18F0010B#000013ffff410b3f
(1721324723.709431) can0 0CF00203#cc0000fff00000ff
(1721324723.710025) can0 08F06203#ffffffff7f7dffff
(1721324723.710605) can0 0CF02903#708a7dffffffffff
(1721324723.711185) can0 18FF5400#ffff11f1fcffffff
(1721324723.711768) can0 0CFF3F17#fffffffffffaffff
(1721324723.712343) can0 18FECA2A#00ff00000000ffff
(1721324723.712930) can0 0CFF8317#3fffe7ffffffffff
(1721324723.713505) can0 18FEDF00#7da0287d7dfffff0
(1721324723.714079) can0 0CFF0211#fc602d00000000ff
(1721324723.714650) can0 18FE5817#ffffffff0c000c00
(1721324723.715226) can0 18F00111#ffffffff00ffffff
(1721324723.715798) can0 0CEF0B2A#7ecdce00fcfaffc0
(1721324723.716348) can0 18F0090B#fb6860077e1f7d7d
(1721324723.716922) can0 18FEE000#cf060000cd060000
(1721324723.717499) can0 18FEBF0B#00007d7d7d7dffff
(1721324723.718088) can0 0CF00400#0e7d7d0000000f7d
(1721324723.718648) can0 18FE4F0B#c100ffffffffffff
(1721324723.719217) can0 18FEF011#fffffffffff1ccff
(1721324723.719792) can0 0CF00203#cc0000fff00000ff
(1721324723.720371) can0 18FDC40B#1c0019ffffffffff
(1721324723.720950) can0 08F06203#ffffffff7f7dffff
(1721324723.721528) can0 0CF02903#708a7dffffffffff
(1721324723.722107) can0 10F007D1#ffff0fffffffffff
(1721324723.723730) can0 0CF00311#dd0000ffffffffff
(1721324723.724303) can0 0CFF0211#fc602d00000000ff
(1721324723.725441) can0 08FE6E0B#0000000000000000
(1721324723.726009) can0 0CF00300#d3ff00ffff1f647d
(1721324723.726571) can0 18F0090B#fb6860077e1f7d7d
(1721324723.727158) can0 18FC9600#0000ffffffffffff
(1721324723.727728) can0 18FEEE00#40ff1b25ffffffff
(1721324723.728299) can0 18F0000F#f07d7df30fffff59
(1721324723.729350) can0 0CF00203#cc0000fff00000ff
(1721324723.729943) can0 08F06203#ffffffff7f7dffff
(1721324723.730520) can0 0CF02903#708a7dffffffffff
(1721324723.731092) can0 18FEDF00#7da0287d7dfffff0
(1721324723.733112) can0 18FF4003#7cfc3f00fa0345fc
(1721324723.733684) can0 0CFF0211#fc602d00000000ff
(1721324723.734272) can0 18FDA403#ffffffffffffffff
(1721324723.734845) can0 18F00503#7d00007d204e204e
(1721324723.735416) can0 18FE4A03#ffdd3f7d0f37f8ff
(1721324723.735977) can0 0CEF0B2A#7ecdce00fcfaff11
(1721324723.736545) can0 0CF0D300#007df0fbfbff14ff
(1721324723.737120) can0 0CF0FA03#ffffffff03fcffff
(1721324723.737700) can0 0CF00400#0e7d7d0000000f7d
(1721324723.738260) can0 18F0090B#fb6860077e1f7d7d
(1721324723.738841) can0 18FF4103#2e09de0dffffffff
(1721324723.739433) can0 18FFA003#fc3f00fcffff3b7e
(1721324723.740021) can0 10F007E8#00ff00ffffffffff
(1721324723.740628) can0 18FAD303#ffffffffffffffff
(1721324723.741203) can0 0CF00203#cc0000fff00000ff
(1721324723.741787) can0 0CFF2817#ffc03ffffaffffff
(1721324723.742358) can0 08F06203#ffffffff7f7dffff
(1721324723.742938) can0 0CFF2B17#fffffffffffdffff
(1721324723.743501) can0 0CF02903#708a7dffffffffff
(1721324723.744077) can0 0CFF0211#fc602d00000000ff
(1721324723.744614) can0 18FEE617#ec2d110748277f79
(1721324723.745759) can0 0CF00300#d3ff00ffff1f647d
(1721324723.746338) can0 08FE6E0B#0000000000000000
(1721324723.746893) can0 18F0090B#fb6860077e277d7d
(1721324723.749279) can0 0CF00203#cc0000fff00000ff
(1721324723.749877) can0 08F06203#ffffffff7f7dffff
(1721324723.750456) can0 0CF02903#708a7dffffffffff
(1721324723.751035) can0 18FF5400#ffff11f1fcffffff
(1721324723.751610) can0 18FEDF00#7da0287d7dfffff0
(1721324723.752202) can0 0CF00A00#00000000ffffffff
(1721324723.752786) can0 18FEF200#0000fffa2003faff
(1721324723.753371) can0 18FEE400#007fffff007fffff
(1721324723.753948) can0 0CFF0211#fc602d00000000ff
(1721324723.755432) can0 18F0090B#fb6860077e277d7d
(1721324723.755984) can0 0CEF0B2A#7ecdce00fcfaff82
(1721324723.756547) can0 0CF02F2A#04f8fff0ffffffff
(1721324723.757448) can0 0CF00400#0e7d7d0000000f7d
(1721324723.758032) can0 0CFF83AE#fffffcffffffffff
(1721324723.759368) can0 0CF00203#cc0000fff00000ff
(1721324723.759943) can0 08F06203#ffffffff7f7dffff
(1721324723.760524) can0 0CF02903#708a7dffffffffff
(1721324723.761109) can0 0C0A002A#c0ffffffffffffff
(1721324723.761698) can0 18FEF700#ffffffffe600ffff
(1721324723.762284) can0 18FD0700#43003c3ffffff3ff
(1721324723.763725) can0 18FE5BE8#43fffffcfcff01ff
(1721324723.764301) can0 0CFF0211#fc602d00000000ff
(1721324723.764851) can0 18FF21E8#0f0f000340f0ff30
(1721324723.765436) can0 08FE6E0B#0000000000000000
(1721324723.766006) can0 0CF00300#d3ff00ffff1f647d
(1721324723.766560) can0 18F0090B#fb6860077e2f7d7d
(1721324723.769274) can0 0CF00203#cc0000fff00000ff
(1721324723.769867) can0 08F06203#ffffffff7f7dffff
(1721324723.770444) can0 0CF02903#708a7dffffffffff
(1721324723.771016) can0 18FEDF00#7da0287d7dfffff0
(1721324723.771604) can0 18F00100#ffffffffffffffff
(1721324723.772188) can0 18FEBD00#00f0ffffffffffff
(1721324723.773515) can0 0CF00311#dd0000ffffffffff
(1721324723.774088) can0 10F007D1#ffff0fffffffffff
(1721324723.774657) can0 0CFF0211#fc602d00000000ff
(1721324723.775465) can0 18F0090B#fb6860077e2f7d7d
(1721324723.776026) can0 0CEF0B2A#7ecdce00fcfaff93
(1721324723.777367) can0 0CF00400#0e7d7d0000000f7d
(1721324723.779306) can0 0CF00203#cc0000fff00000ff
(1721324723.779897) can0 08F06203#ffffffff7f7dffff
(1721324723.780479) can0 0CF02903#708a7dffffffffff
(1721324723.781069) can0 18FEF000#ffffffffffffffff
(1721324723.781653) can0 0CFF0B17#ff0000003ff8ffff
(1721324723.783045) can0 18FF4003#7cfc3f00fa0345fc
(1721324723.783761) can0 0CFF0211#fc602d00000000ff
(1721324723.785450) can0 08FE6E0B#0000000000000000
(1721324723.786019) can0 0CF00300#d3ff00ffff1f647d
(1721324723.786578) can0 10FE6F2A#ffff00d0007d00ff
(1721324723.787137) can0 18F0090B#fb6860077e2f7d7d
(1721324723.789300) can0 0CF00203#cc0000fff00000ff
(1721324723.789890) can0 10F007E8#00ff00ffffffffff
(1721324723.790470) can0 08F06203#ffffffff7f7dffff
(1721324723.791041) can0 18FF102A#ff00ffff00403ff3
(1721324723.791606) can0 0CF02903#708a7dffffffffff
(1721324723.792185) can0 0CFF2B17#fffffffffffdffff
(1721324723.792766) can0 18FF5400#ffff11f1fcffffff
(1721324723.793340) can0 18E00017#ffffff3ffff0ffff
(1721324723.793917) can0 0CFF0211#fc602d00000000ff
(1721324723.794482) can0 18FEDF00#7da0287d7dfffff0
(1721324723.795553) can0 0CEF0B2A#7ecdce00fcfafff4
(1721324723.796110) can0 18F0090B#fb6860077e377d7d
(1721324723.797318) can0 0CF00400#0e7d7d0000000f7d
(1721324723.799277) can0 0CF00203#cc0000fff00000ff
(1721324723.799866) can0 08F06203#ffffffff7f7dffff
(1721324723.800456) can0 0CF02903#708a7dffffffffff
(1721324723.801106) can0 0CF00A00#00000000ffffffff
(1721324723.801691) can0 18FEF100#ff0000fcff001fcf
(1721324723.802285) can0 18E0FF00#00ffffffffffffff
(1721324723.803673) can0 18FEF111#c700000700ffffc0
(1721324723.804251) can0 0CFF0211#fc602d00000000ff
(1721324723.805239) can0 18A9E8D1#fdfffffffffffffd
(1721324723.805826) can0 08FE6E0B#0000000000000000
(1721324723.806393) can0 0CF00300#d3ff00ffff1f647d
(1721324723.806960) can0 0CF02F2A#04f8fff0ffffffff
(1721324723.807512) can0 18F0090B#fb6860077e377d7d
(1721324723.808096) can0 0CFF83AE#fffffcffffffffff
(1721324723.808658) can0 18F0010B#000013ffff410b3f
(1721324723.809365) can0 0CF00203#cc0000fff00000ff
(1721324723.809957) can0 08F06203#ffffffff7f7dffff
(1721324723.810538) can0 0CF02903#708a7dffffffffff
(1721324723.811107) can0 18FEDF00#7da0287d7dfffff0
(1721324723.811694) can0 0CFF3F17#fffffffffffaffff
(1721324723.812271) can0 0CFD9200#f0ffffffffffffff
(1721324723.812861) can0 0CFF8317#3fffe7ffffffffff
(1721324723.813443) can0 18FE5117#5fffffffffffffff
(1721324723.814017) can0 0CFF0211#fc602d00000000ff
(1721324723.814591) can0 18FE5817#ffffffff0c000c00
(1721324723.815167) can0 18F00111#ffffffff00ffffff
(1721324723.815717) can0 0CEF0B2A#7ecdce00fcfaff85
(1721324723.816271) can0 18F0090B#fb6860077e377d7d
(1721324723.816843) can0 18FEE000#cf060000cd060000
(1721324723.817423) can0 18FEBF0B#00007d7d7d7dffff
(1721324723.817997) can0 18FEF011#fffffffffff1ccff
(1721324723.818564) can0 18FE4F0B#c100ffffffffffff
(1721324723.819137) can0 18FEF500#c6ffff2925ffffff
(1721324723.819713) can0 0CF00203#cc0000fff00000ff
(1721324723.820288) can0 0CF00400#0e7d7d0000000f7d
(1721324723.820864) can0 08F06203#ffffffff7f7dffff
(1721324723.821445) can0 18FDC40B#1c0019ffffffffff
(1721324723.822009) can0 0CF02903#708a7dffffffffff
(1721324723.822572) can0 0CFF010B#ff0003faef18ffff
(1721324723.822985) can0 18EAFFFB#c3fe00
(1721324723.823851) can0 0CF00311#dd0000ffffffffff
(1721324723.824436) can0 0CFF0211#fc602d00000000ff
(1721324723.825806) can0 0CF00300#d3ff00ffff1f647d
(1721324723.826384) can0 08FE6E0B#0000000000000000
(1721324723.826962) can0 10F007D1#ffff0fffffffffff
(1721324723.827517) can0 18F0090B#fb6860077e377d7d
(1721324723.828100) can0 18FC9600#0000ffffffffffff
(1721324723.828673) can0 18F0000F#f07d7df30fffff59
(1721324723.829381) can0 0CF00203#cc0000fff00000ff
(1721324723.829977) can0 08F06203#ffffffff7f7dffff
(1721324723.830555) can0 0CF02903#708a7dffffffffff
(1721324723.831135) can0 18FF5400#ffff11f1fcffffff
(1721324723.831712) can0 18FEDF00#7da0287d7dfffff0
(1721324723.833160) can0 18FF4003#7cfc3f00fa0345fc
(1721324723.833734) can0 0CFF0211#fc602d00000000ff
(1721324723.834316) can0 18FDA403#ffffffffffffffff
(1721324723.834891) can0 18F00503#7d00007d204e204e
(1721324723.835464) can0 18FE4A03#ffdd3f7d0f37f8ff
(1721324723.836023) can0 0CEF0B2A#7ecdce00fcfaff96
(1721324723.836593) can0 0CF0D300#007df0fbfbff14ff
(1721324723.837168) can0 0CF0FA03#ffffffff03fcffff
(1721324723.837747) can0 0CF00400#0e7d7d0000000f7d
(1721324723.838300) can0 18F0090B#fb6860077e377d7d
(1721324723.838880) can0 18FF4103#2e09de0dffffffff
(1721324723.839472) can0 18FFA003#fc3f00fcffff3b7e
(1721324723.840060) can0 10F007E8#00ff00ffffffffff
(1721324723.840657) can0 18FAD303#ffffffffffffffff
(1721324723.841238) can0 18FEFC00#ffffffffffffffff
(1721324723.841817) can0 0CF00203#cc0000fff00000ff
(1721324723.842393) can0 0CFF2B17#fffffffffffdffff
(1721324723.842969) can0 08F06203#ffffffff7f7dffff
(1721324723.843549) can0 0CF02903#708a7dffffffffff
(1721324723.844121) can0 0CFF0211#fc602d00000000ff
(1721324723.845505) can0 08FE6E0B#0000000000000000
(1721324723.846089) can0 0CF00300#d3ff00ffff1f647d
(1721324723.846633) can0 18F0090B#fb6860077e377d7d
(1721324723.849281) can0 0CF00203#cc0000fff00000ff
(1721324723.849874) can0 08F06203#ffffffff7f7dffff
(1721324723.850456) can0 0CF02903#708a7dffffffffff
(1721324723.851032) can0 18FEC100#05aa00003baa0000
(1721324723.851600) can0 18FEDF00#7da0287d7dfffff0
(1721324723.852191) can0 0CF00A00#00000000ffffffff
(1721324723.852779) can0 18FEF200#0000fffa2003faff
(1721324723.853355) can0 1CFEC20F#ff7083ffffffffff
(1721324723.853930) can0 0CFF0211#fc602d00000000ff
(1721324723.855461) can0 18F0090B#fb6860077e377d7d
(1721324723.856008) can0 0CEF0B2A#7ecdce00fcfaff97
(1721324723.856571) can0 0CF02F2A#04f8fff0ffffffff
(1721324723.857391) can0 0CF00400#0e7d7d0000000f7d
(1721324723.857978) can0 0CFF83AE#fffffcffffffffff
(1721324723.859307) can0 0CF00203#cc0000fff00000ff
(1721324723.859899) can0 08F06203#ffffffff7f7dffff
(1721324723.860483) can0 0CF02903#708a7dffffffffff
(1721324723.861067) can0 0C0A002A#c0ffffffffffffff
(1721324723.863637) can0 0CFF0211#fc602d00000000ff
(1721324723.864211) can0 18FE5BE8#43fffffcfcff01ff
(1721324723.864767) can0 18FF21E8#0f0f000340f0ff30
(1721324723.865351) can0 08FE6E0B#0000000000000000
(1721324723.865920) can0 0CF00300#d3ff00ffff1f647d
(1721324723.866474) can0 18F0090B#fb6860077e2f7d7d
(1721324723.869286) can0 0CF00203#cc0000fff00000ff
(1721324723.869879) can0 08F06203#ffffffff7f7dffff
(1721324723.870458) can0 0CF02903#708a7dffffffffff
(1721324723.871039) can0 18FF5400#ffff11f1fcffffff
(1721324723.871615) can0 18FC2B00#ffff386affffffff
(1721324723.872192) can0 18FEDF00#7da0287d7dfffff0
(1721324723.872779) can0 18F00100#ffffffffffffffff
(1721324723.873539) can0 0CF00311#dd0000ffffffffff
(1721324723.874117) can0 0CFF0211#fc602d00000000ff
(1721324723.875447) can0 18F0090B#fb6860077e2f7d7d
(1721324723.875995) can0 0CEF0B2A#7ecdce00fcfaff58
(1721324723.877067) can0 10F007D1#ffff0fffffffffff
(1721324723.877643) can0 0CF00400#0e7d7d0000000f7d
(1721324723.879314) can0 0CF00203#cc0000fff00000ff
(1721324723.879904) can0 08F06203#ffffffff7f7dffff
(1721324723.880484) can0 0CF02903#708a7dffffffffff
(1721324723.881076) can0 18FEF000#ffffffffffffffff
(1721324723.881660) can0 0CFF0B17#ff0000003ff8ffff
(1721324723.883033) can0 18FF4003#7cfc3f00fa0345fc
(1721324723.883724) can0 0CFF0211#fc602d00000000ff
(1721324723.884325) can0 18FFE811#24000000000000ff
(1721324723.885472) can0 08FE6E0B#0000000000000000
(1721324723.886042) can0 0CF00300#d3ff00ffff1f647d
(1721324723.886604) can0 10FE6F2A#ffff00d0007d00ff
(1721324723.887176) can0 1885FF00#ffffffff0ceeffff
(1721324723.887732) can0 18F0090B#fb6860077e2f7d7d
(1721324723.889309) can0 0CF00203#cc0000fff00000ff
(1721324723.889902) can0 10F007E8#00ff00ffffffffff
(1721324723.890475) can0 08F06203#ffffffff7f7dffff
(1721324723.891046) can0 18FEDF00#7da0287d7dfffff0
(1721324723.891610) can0 0CF02903#708a7dffffffffff
(1721324723.892190) can0 0CFF2B17#fffffffffffdffff
(1721324723.892770) can0 18FF102A#ff00ffff00403ff3
(1721324723.893640) can0 0CFF0211#fc602d00000000ff
(1721324723.895425) can0 18F0090B#fb6860077e2f7d7d
(1721324723.895975) can0 0CEF0B2A#7ecdce00fcfaffd9
(1721324723.897344) can0 0CF00400#0e7d7d0000000f7d
(1721324723.899265) can0 0CF00203#cc0000fff00000ff
(1721324723.899855) can0 08F06203#ffffffff7f7dffff
(1721324723.900437) can0 0CF02903#708a7dffffffffff
(1721324723.901020) can0 18FDB400#24250c25ffffffff
(1721324723.901611) can0 0CF00A00#00000000ffffffff
(1721324723.902197) can0 18FEF100#ff0000fcff001fcf
(1721324723.903654) can0 18FEF111#c700000700ffffc0
(1721324723.904231) can0 0CFF0211#fc602d00000000ff
(1721324723.904809) can0 18A9E8D1#fdfffffffffffffd
(1721324723.905555) can0 0CF02F2A#04f8fff0ffffffff
(1721324723.906139) can0 08FE6E0B#0000000000000000
(1721324723.906707) can0 0CF00300#d3ff00ffff1f647d
(1721324723.907269) can0 18F0090B#fb6860077e2f7d7d
(1721324723.907848) can0 0CFF83AE#fffffcffffffffff
(1721324723.908413) can0 18F0010B#000013ffff410b3f
(1721324723.909337) can0 0CF00203#cc0000fff00000ff
(1721324723.909931) can0 08F06203#ffffffff7f7dffff
(1721324723.910507) can0 0CF02903#708a7dffffffffff
(1721324723.911088) can0 18FF5400#ffff11f1fcffffff
(1721324723.911675) can0 0CFF3F17#fffffffffffaffff
(1721324723.912255) can0 18FEDF00#7da0287d7dfffff0
(1721324723.912832) can0 0CFF8317#3fffe7ffffffffff
(1721324723.913418) can0 18FE5817#ffffffff0c000c00
(1721324723.913991) can0 0CFF0211#fc602d00000000ff
(1721324723.914577) can0 18F00111#ffffffff00ffffff
(1721324723.915158) can0 18FEF011#fffffffffff1ccff
(1721324723.915704) can0 0CEF0B2A#7ecdce00fcfaff5a
(1721324723.916261) can0 18F0090B#fb6860077e2f7d7d
(1721324723.916831) can0 18FEE000#cf060000cd060000
(1721324723.917414) can0 18FEBF0B#00007d7d7d7dffff
(1721324723.917991) can0 0CF00400#0e7d7d0000000f7d
(1721324723.918563) can0 18FE4F0B#c100ffffffffffff
(1721324723.919146) can0 18FDC40B#1c0019ffffffffff
(1721324723.919720) can0 0CF00203#cc0000fff00000ff
(1721324723.920314) can0 08F06203#ffffffff7f7dffff
(1721324723.920893) can0 0CF02903#708a7dffffffffff
(1721324723.921465) can0 18FDB300#ffff2c25ffffffff
(1721324723.923787) can0 0CF00311#dd0000ffffffffff
(1721324723.924363) can0 0CFF0211#fc602d00000000ff
(1721324723.925433) can0 08FE6E0B#0000000000000000
(1721324723.926003) can0 0CF00300#d3ff00ffff1f647d
(1721324723.926557) can0 18F0090B#fb6860077e2f7d7d
(1721324723.927144) can0 18FC9600#0000ffffffffffff
(1721324723.927716) can0 18F0000F#f07d7df30fffff59
(1721324723.928798) can0 10F007D1#ffff0fffffffffff
(1721324723.929373) can0 0CF00203#cc0000fff00000ff
(1721324723.929971) can0 08F06203#ffffffff7f7dffff
(1721324723.930556) can0 0CF02903#708a7dffffffffff
(1721324723.931125) can0 18FEDF00#7da0287d7dfffff0
(1721324723.931704) can0 18FD0900#361f0200361f0200
(1721324723.933139) can0 18FF4003#7cfc3f00fa0345fc
(1721324723.933721) can0 0CFF0211#fc602d00000000ff
(1721324723.934296) can0 18FDA403#ffffffffffffffff
(1721324723.934875) can0 18FEE411#fffffcffffffffff
(1721324723.935438) can0 18F00503#7d00007d204e204e
(1721324723.935990) can0 0CEF0B2A#7ecdce00fcfafffb
(1721324723.936568) can0 0CF0D300#007df0fbfbff14ff
(1721324723.937121) can0 18F0090B#fb6860077e2f7d7d
(1721324723.937704) can0 0CF00400#0e7d7d0000000f7d
(1721324723.938259) can0 18FE4A03#ffdd3f7d0f37f8ff
(1721324723.938853) can0 0CF0FA03#ffffffff03fcffff
(1721324723.939451) can0 18FF4103#2e09de0dffffffff
(1721324723.940037) can0 10F007E8#00ff00ffffffffff
(1721324723.940611) can0 18FFA003#fc3f00fcffff3b7e
(1721324723.941214) can0 18FAD303#ffffffffffffffff
(1721324723.941798) can0 0CFF2B17#fffffffffffdffff
(1721324723.942371) can0 0CF00203#cc0000fff00000ff
(1721324723.942962) can0 08F06203#ffffffff7f7dffff
(1721324723.943547) can0 0CF02903#708a7dffffffffff
(1721324723.944115) can0 0CFF0211#fc602d00000000ff
(1721324723.945505) can0 08FE6E0B#0000000000000000
(1721324723.946074) can0 0CF00300#d3ff00ffff1f647d
(1721324723.946627) can0 18F0090B#fb6860077e2f7d7d
(1721324723.949301) can0 0CF00203#cc0000fff00000ff
(1721324723.949894) can0 08F06203#ffffffff7f7dffff
(1721324723.950471) can0 0CF02903#708a7dffffffffff
(1721324723.951054) can0 18FF5400#ffff11f1fcffffff
(1721324723.951627) can0 18FEDF00#7da0287d7dfffff0
(1721324723.952220) can0 0CF00A00#00000000ffffffff
(1721324723.952806) can0 18FEF200#0000fffa2003faff
(1721324723.953671) can0 0CFF0211#fc602d00000000ff
(1721324723.955399) can0 18F0090B#fb6860077e2f7d7d
(1721324723.955948) can0 0CEF0B2A#7ecdce00fcfaff1c
(1721324723.956511) can0 0CF02F2A#04f8fff0ffffffff
(1721324723.957356) can0 0CF00400#0e7d7d0000000f7d
(1721324723.957960) can0 0CFF83AE#fffffcffffffffff
(1721324723.959325) can0 0CF00203#cc0000fff00000ff
(1721324723.959919) can0 08F06203#ffffffff7f7dffff
(1721324723.960500) can0 0CF02903#708a7dffffffffff
(1721324723.961081) can0 0C0A002A#c0ffffffffffffff
(1721324723.963736) can0 18FE5BE8#43fffffcfcff01ff
(1721324723.964305) can0 0CFF0211#fc602d00000000ff
(1721324723.964864) can0 18FF21E8#0f0f000340f0ff30
(1721324723.965445) can0 08FE6E0B#0000000000000000
(1721324723.966015) can0 0CF00300#d3ff00ffff1f647d
(1721324723.966566) can0 18F0090B#fb6860077e277d7d
(1721324723.969300) can0 0CF00203#cc0000fff00000ff
(1721324723.969892) can0 08F06203#ffffffff7f7dffff
(1721324723.970469) can0 0CF02903#708a7dffffffffff
(1721324723.971041) can0 18FEDF00#7da0287d7dfffff0
(1721324723.971629) can0 18F00100#ffffffffffffffff
(1721324723.973499) can0 0CF00311#dd0000ffffffffff
(1721324723.974087) can0 0CFF0211#fc602d00000000ff
(1721324723.975388) can0 18F0090B#fb68600b7e277d7d
(1721324723.975934) can0 0CEF0B2A#7ecdce00fcfaff5d
(1721324723.977367) can0 0CF00400#0e7d7d0000000f7d
(1721324723.979299) can0 0CF00203#cc0000fff00000ff
(1721324723.979892) can0 08F06203#ffffffff7f7dffff
(1721324723.980470) can0 10F007D1#ffff0fffffffffff
(1721324723.981034) can0 0CF02903#708a7dffffffffff
(1721324723.981618) can0 0CFF0B17#ff0000003ff8ffff
(1721324723.982208) can0 18FEF000#ffffffffffffffff
(1721324723.983061) can0 18FF4003#7cfc3f00fa0345fc
(1721324723.983781) can0 0CFF0211#fc602d00000000ff
(1721324723.985489) can0 08FE6E0B#0000000000000000
(1721324723.986057) can0 0CF00300#d3ff00ffff1f647d
(1721324723.986620) can0 10FE6F2A#ffff00d0007d00ff
(1721324723.987167) can0 18F0090B#fb68600b7e277d7d
(1721324723.989288) can0 0CF00203#cc0000fff00000ff
(1721324723.989878) can0 10F007E8#00ff00ffffffffff
(1721324723.990452) can0 08F06203#ffffffff7f7dffff
(1721324723.991027) can0 18FF102A#ff00ffff00403ff3
(1721324723.991590) can0 0CF02903#708a7dffffffffff
(1721324723.992170) can0 0CFF2B17#fffffffffffdffff
(1721324723.992752) can0 18FF5400#ffff11f1fcffffff
(1721324723.993332) can0 18FEDF00#7da0287d7dfffff0
(1721324723.993903) can0 0CFF0211#fc602d00000000ff
(1721324723.995449) can0 18F0090B#fb68600b7e277d7d
(1721324723.996006) can0 0CEF0B2A#7ecdce00fcfafffe
(1721324723.997341) can0 0CF00400#0e7d7d0000000f7d
(1721324723.999297) can0 0CF00203#cc0000fff00000ff
(1721324723.999887) can0 08F06203#ffffffff7f7dffff
(1721324724.000469) can0 0CF02903#708a7dffffffffff
(1721324724.001088) can0 0CF00A00#00000000ffffffff
(1721324724.001672) can0 18FEF100#ff0000fcff001fcf
(1721324724.002248) can0 1CECFF00#20120003ffcafe00
(1721324724.003734) can0 18FEF111#c700000700ffffc0
(1721324724.004309) can0 0CFF0211#fc602d00000000ff
(1721324724.004980) can0 18A9E8D1#fdfffffffffffffd
(1721324724.005564) can0 0CF02F2A#04f8fff0ffffffff
(1721324724.006150) can0 08FE6E0B#0000000000000000
(1721324724.006716) can0 18FE5600#4f40ffff1f1f00ff
(1721324724.007273) can0 18F0090B#fb68600b7e1f7d7d
(1721324724.007856) can0 0CF00300#d3ff00ffff1f647d
(1721324724.008424) can0 0CFF83AE#fffffcffffffffff
(1721324724.008989) can0 18F0010B#000013ffff410b3f
(1721324724.009565) can0 0CF00203#cc0000fff00000ff
(1721324724.010157) can0 08F06203#ffffffff7f7dffff
(1721324724.010739) can0 0CF02903#708a7dffffffffff
(1721324724.011322) can0 0CFF3F17#fffffffffffaffff
(1721324724.011892) can0 18FEDF00#7da0287d7dfffff0
(1721324724.012480) can0 0CFF8317#3fffe7ffffffffff
(1721324724.013066) can0 18FE5817#ffffffff0c000c00
(1721324724.013657) can0 18E00011#00ffffffffffffff
(1721324724.014233) can0 0CFF0211#fc602d00000000ff
(1721324724.014821) can0 18F00111#ffffffff00ffffff
(1721324724.015402) can0 18FEF011#fffffffffff1ccff
(1721324724.015960) can0 0CEF0B2A#7ecdce00fcfaff1f
(1721324724.016518) can0 18F0090B#fb68600b7e1f7d7d
(1721324724.017089) can0 18FEE000#cf060000cd060000
(1721324724.017668) can0 18FEBF0B#00007d7d7d7dffff
(1721324724.018247) can0 0CF00400#0e7d7d0000000f7d
(1721324724.018817) can0 18FE4F0B#c100ffffffffffff
(1721324724.019401) can0 0CF00203#cc0000fff00000ff
(1721324724.019974) can0 18FDC40B#1c0019ffffffffff
(1721324724.020551) can0 08F06203#ffffffff7f7dffff
(1721324724.021129) can0 0CF02903#708a7dffffffffff
(1721324724.023699) can0 0CF00311#dd0000ffffffffff
(1721324724.024274) can0 0CFF0211#fc602d00000000ff
(1721324724.025418) can0 08FE6E0B#0000000000000000
(1721324724.025987) can0 0CF00300#d3ff00ffff1f647d
(1721324724.026533) can0 18F0090B#fb68600b7e177d7d
(1721324724.027119) can0 18FC9600#0000ffffffffffff
(1721324724.027690) can0 18F0000F#f07d7df30fffff59
(1721324724.029326) can0 0CF00203#cc0000fff00000ff
(1721324724.029912) can0 08F06203#ffffffff7f7dffff
(1721324724.030492) can0 0CF02903#708a7dffffffffff
(1721324724.031070) can0 18FF5400#ffff11f1fcffffff
(1721324724.031654) can0 10F007D1#ffff0fffffffffff
(1721324724.032239) can0 18FD9B00#ff81fffffff3ffff
(1721324724.032816) can0 18FEDF00#7da0287d7dfffff0
(1721324724.033382) can0 18FF4003#7cfc3f00fa0345fc
(1721324724.033957) can0 0CFF0211#fc602d00000000ff
(1721324724.034540) can0 18FDA403#ffffffffffffffff
(1721324724.035115) can0 18F00503#7d00007d204e204e
(1721324724.035672) can0 0CEF0B2A#7ecdce00fcfaffc0
(1721324724.036247) can0 0CF0D300#007df0fbfbff14ff
(1721324724.036796) can0 18F0090B#fb68600b7e177d7d
(1721324724.037356) can0 18FE4A03#ffdd3f7d0f37f8ff
(1721324724.037933) can0 0CF00400#0e7d7d0000000f7d
(1721324724.038509) can0 0CF0FA03#ffffffff03fcffff
(1721324724.039106) can0 18FF4103#2e09de0dffffffff
(1721324724.039696) can0 18FFA003#fc3f00fcffff3b7e
(1721324724.040284) can0 10F007E8#00ff00ffffffffff
(1721324724.040890) can0 18FAD303#ffffffffffffffff
(1721324724.041455) can0 0CFF2B17#fffffffffffdffff
(1721324724.042033) can0 0CF00203#cc0000fff00000ff
(1721324724.042573) can0 18FCE700#8386848486868cff
(1721324724.043152) can0 08F06203#ffffffff7f7dffff
(1721324724.043732) can0 0CF02903#708a7dffffffffff
(1721324724.044303) can0 0CFF0211#fc602d00000000ff
(1721324724.045758) can0 0CF00300#d3ff00ffff1f647d
(1721324724.046338) can0 08FE6E0B#0000000000000000
(1721324724.046888) can0 18F0090B#fb68600b7e177d7d
(1721324724.049328) can0 0CF00203#cc0000fff00000ff
(1721324724.049920) can0 08F06203#ffffffff7f7dffff
(1721324724.050497) can0 0CF02903#708a7dffffffffff
(1721324724.051071) can0 18FEDF00#7da0287d7dfffff0
(1721324724.051663) can0 0CF00A00#00000000ffffffff
(1721324724.052241) can0 18FEF200#0000fffa2103faff
(1721324724.052812) can0 1CEBFF00#0143ff2e02090b5b
(1721324724.053702) can0 0CFF0211#fc602d00000000ff
(1721324724.055440) can0 18F0090B#fb68600b7e0f7d7d
(1721324724.055990) can0 0CEF0B2A#7ecdce00fcfaff11
(1721324724.056556) can0 0CF02F2A#04f8fff0ffffffff
(1721324724.057418) can0 0CF00400#0e7d7d0000000f7d
(1721324724.058004) can0 0CFF83AE#fffffcffffffffff
(1721324724.059318) can0 0CF00203#cc0000fff00000ff
(1721324724.059910) can0 08F06203#ffffffff7f7dffff
(1721324724.060499) can0 0CF02903#708a7dffffffffff
(1721324724.061074) can0 0C0A002A#c0ffffffffffffff
(1721324724.061654) can0 0CFD9200#f0ffffffffffffff
(1721324724.062231) can0 18FE5117#5fffffffffffffff
(1721324724.063724) can0 18FE5BE8#43fffffcfcff01ff
(1721324724.064296) can0 0CFF0211#fc602d00000000ff
(1721324724.064851) can0 18FF21E8#0f0f000340f0ff30
(1721324724.065435) can0 08FE6E0B#0000000000000000
(1721324724.066005) can0 0CF00300#d3ff00ffff1f647d
(1721324724.066558) can0 18F0090B#fb68600b7e0f7d7d
(1721324724.067144) can0 19FF2211#ffffffffffffffff
(1721324724.069283) can0 0CF00203#cc0000fff00000ff
(1721324724.069877) can0 08F06203#ffffffff7f7dffff
(1721324724.070458) can0 0CF02903#708a7dffffffffff
(1721324724.071039) can0 18FF5400#ffff11f1fcffffff
(1721324724.071614) can0 18FEDF00#7da0287d7dfffff0
(1721324724.072203) can0 18F00100#ffffffffffffffff
(1721324724.073621) can0 0CF00311#dd0000ffffffffff
(1721324724.074201) can0 0CFF0211#fc602d00000000ff
(1721324724.074770) can0 0CFF2811#ffffffff0f3fff00
(1721324724.075455) can0 18F0090B#fb68600b7e0f7d7d
(1721324724.076010) can0 0CEF0B2A#7ecdce00fcfaff82
(1721324724.077368) can0 0CF00400#0e7d7d0000000f7d
(1721324724.079344) can0 0CF00203#cc0000fff00000ff
(1721324724.079935) can0 08F06203#ffffffff7f7dffff
(1721324724.080523) can0 0CF02903#708a7dffffffffff
(1721324724.081107) can0 18FEF000#ffffffffffffffff
(1721324724.081691) can0 0CFF0B17#ff0000003ff8ffff
(1721324724.082616) can0 10F007D1#ffff0fffffffffff
(1721324724.083182) can0 18FF4003#7cfc3f00fa0345fc
(1721324724.083761) can0 0CFF0211#fc602d00000000ff
(1721324724.085511) can0 08FE6E0B#0000000000000000
(1721324724.086080) can0 0CF00300#d3ff00ffff1f647d
(1721324724.086646) can0 10FE6F2A#ffff00d0007d00ff
(1721324724.087195) can0 18F0090B#fb68600b7e077d7d
(1721324724.087755) can0 1CECFF0F#20130003ffe1fe00
(1721324724.089326) can0 0CF00203#cc0000fff00000ff
(1721324724.089914) can0 10F007E8#00ff00ffffffffff
(1721324724.090487) can0 08F06203#ffffffff7f7dffff
(1721324724.091064) can0 18FEDF00#7da0287d7dfffff0
(1721324724.091625) can0 0CF02903#708a7dffffffffff
(1721324724.092206) can0 0CFF2B17#fffffffffffdffff
(1721324724.092781) can0 18FF102A#ff00ffff00403ff3
(1721324724.093681) can0 0CFF0211#fc602d00000000ff
(1721324724.095576) can0 0CEF0B2A#7ecdce00fcfaff93
(1721324724.096124) can0 18F0090B#fb68600b7e077d7d
(1721324724.097348) can0 0CF00400#0e7d7d0000000f7d
(1721324724.099272) can0 0CF00203#cc0000fff00000ff
(1721324724.099861) can0 08F06203#ffffffff7f7dffff
(1721324724.100442) can0 0CF02903#708a7dffffffffff
(1721324724.101137) can0 0CF00A00#00000000ffffffff
(1721324724.101723) can0 18FEF100#ff0000fcff001fcf
(1721324724.103615) can0 18FEF111#c700000700ffffc0
(1721324724.104196) can0 0CFF0211#fc602d00000000ff
(1721324724.105065) can0 18A9E8D1#fdfffffffffffffd
(1721324724.105649) can0 08FE6E0B#0000000000000000
(1721324724.106214) can0 0CF02F2A#04f8fff0ffffffff
(1721324724.106800) can0 14FC9800#ff000000000000ff
(1721324724.107350) can0 18F0090B#fb68600b7e077d7d
(1721324724.107917) can0 0CF00300#d3ff00ffff1f647d
(1721324724.108501) can0 0CFF83AE#fffffcffffffffff
(1721324724.109084) can0 18F0010B#000013ffff410b3f
(1721324724.109642) can0 0CF00203#cc0000fff00000ff
(1721324724.110212) can0 1CEBFF00#0200090bbf000903
(1721324724.110786) can0 08F06203#ffffffff7f7dffff
(1721324724.111374) can0 0CFF3F17#fffffffffffaffff
(1721324724.111936) can0 0CF02903#708a7dffffffffff
(1721324724.112523) can0 0CFF8317#3fffe7ffffffffff
(1721324724.113103) can0 18FF5400#ffff11f1fcffffff
(1721324724.113678) can0 18F00111#ffffffff00ffffff
(1721324724.114257) can0 18FE5817#ffffffff0c000c00
(1721324724.114827) can0 0CFF0211#fc602d00000000ff
(1721324724.115398) can0 18FEDF00#7da0287d7dfffff0
(1721324724.115952) can0 0CEF0B2A#7ecdce00fcfafff4
(1721324724.116504) can0 18F0090B#fb68600b7e077d7d
(1721324724.117076) can0 18FEE000#cf060000cd060000
(1721324724.117656) can0 18FEBF0B#00007d7d7d7dffff
(1721324724.118231) can0 0CF00400#0e7d7d0000000f7d
(1721324724.118804) can0 18FE4F0B#c100ffffffffffff
(1721324724.119379) can0 0CF00203#cc0000fff00000ff
(1721324724.119958) can0 18FDC40B#1c0019ffffffffff
(1721324724.120535) can0 08F06203#ffffffff7f7dffff
(1721324724.121103) can0 18FEF011#fffffffffff1ccff
(1721324724.121668) can0 0CF02903#708a7dffffffffff
(1721324724.123687) can0 0CF00311#dd0000ffffffffff
(1721324724.124264) can0 0CFF0211#fc602d00000000ff
(1721324724.125457) can0 08FE6E0B#0000000000000000
(1721324724.126024) can0 0CF00300#d3ff00ffff1f647d
(1721324724.126577) can0 18F0090B#fb68600b7eff7c7d
(1721324724.127160) can0 18FC9600#0000ffffffffffff
(1721324724.127712) can0 18F0F69F#feff61510002ff3f
(1721324724.128279) can0 18F0000F#f07d7df30fffff59
(1721324724.129371) can0 0CF00203#cc0000fff00000ff
(1721324724.129956) can0 08F06203#ffffffff7f7dffff
(1721324724.130532) can0 0CF02903#708a7dffffffffff
(1721324724.131106) can0 18FD7C00#e08b0100c35f03ff
(1721324724.131681) can0 18FEDF00#7da0287d7dfffff0
(1721324724.133138) can0 18FF4003#7cfc3f00fa0345fc
(1721324724.133712) can0 0CFF0211#fc602d00000000ff
(1721324724.134295) can0 18FDA403#ffffffffffffffff
(1721324724.134874) can0 10F007D1#ffff0fffffffffff
(1721324724.135438) can0 18F00503#7d00007d204e2046
(1721324724.135984) can0 0CEF0B2A#7ecdce00fcfaff85
(1721324724.136560) can0 0CF0D300#007df0fbfbff14ff
(1721324724.137115) can0 18F0090B#fb68600b7eff7c7d
(1721324724.137674) can0 18FE4A03#ffdd3f7d0f37f8ff
(1721324724.138238) can0 1CEBFF0F#010300c01259803e
(1721324724.138816) can0 0CF0FA03#ffffffff03fcffff
(1721324724.139390) can0 0CF00400#0e7d7d0000000f7d
(1721324724.139979) can0 10F007E8#00ff00ffffffffff
(1721324724.140555) can0 18FF4103#2e09de0dffffffff
(1721324724.141130) can0 18FD7B00#080000000000eb0c
(1721324724.141713) can0 0CFF2B17#fffffffffffdffff
(1721324724.142285) can0 18FFA003#fc3f00fcffff3b7e
(1721324724.142891) can0 18FAD303#ffffffffffffffff
(1721324724.143462) can0 18ECFF11#20190004ffdafe00
(1721324724.144037) can0 0CF00203#cc0000fff00000ff
(1721324724.144612) can0 0CFF0211#fc602d00000000ff
(1721324724.145186) can0 08F06203#ffffffff7f7dffff
(1721324724.145776) can0 0CF02903#708a7dffffffffff
(1721324724.146345) can0 08FE6E0B#0000000000000000
(1721324724.146915) can0 0CF00300#d3ff00ffff1f647d
(1721324724.147465) can0 18F0090B#fb68600b7eff7c7d
(1721324724.148684) can0 18FECAAE#000000000000ffff
(1721324724.149370) can0 0CF00203#cc0000fff00000ff
(1721324724.149967) can0 08F06203#ffffffff7f7dffff
(1721324724.150545) can0 0CF02903#708a7dffffffffff
(1721324724.151123) can0 18FF5400#ffff11f1fcffffff
(1721324724.151699) can0 18FEDF00#7da0287d7dfffff0
(1721324724.152294) can0 0CF00A00#00000000ffffffff
(1721324724.152871) can0 18FEF200#0000fffa2103faff
(1721324724.153447) can0 18FEEF00#ffffff00fe7cfffa
(1721324724.154031) can0 0CFF0211#fc602d00000000ff
(1721324724.155468) can0 18F0090B#fb68600b7eff7c7d
(1721324724.156020) can0 0CEF0B2A#7ecdce00fcfaff96
(1721324724.156583) can0 0CF02F2A#04f8fff0ffffffff
(1721324724.157357) can0 0CF00400#0e7d7d0000000f7d
(1721324724.157944) can0 0CFF83AE#fffffcffffffffff
(1721324724.159365) can0 0CF00203#cc0000fff00000ff
(1721324724.159957) can0 08F06203#ffffffff7f7dffff
(1721324724.160536) can0 0CF02903#708a7dffffffffff
(1721324724.161121) can0 0C0A002A#c0ffffffffffffff
(1721324724.161701) can0 1CEBFF00#0354000903ffffff
(1721324724.163670) can0 0CFF0211#fc602d00000000ff
(1721324724.164243) can0 18FE5BE8#43fffffcfcff01ff
(1721324724.164799) can0 18FF21E8#0f0f000340f0ff30
(1721324724.165445) can0 08FE6E0B#0000000000000000
(1721324724.166015) can0 0CF00300#d3ff00ffff1f647d
(1721324724.166564) can0 18F0090B#fb68600b7e077d7d
(1721324724.169291) can0 0CF00203#cc0000fff00000ff
(1721324724.169884) can0 08F06203#ffffffff7f7dffff
(1721324724.170461) can0 0CF02903#708a7dffffffffff
(1721324724.171032) can0 18FEDF00#7da0287d7dfffff0
(1721324724.171620) can0 18F00100#ffffffffffffffff
(1721324724.172196) can0 18FEF600#ff004131ffffffff
(1721324724.173542) can0 0CF00311#dd0000ffffffffff
(1721324724.174121) can0 0CFF0211#fc602d00000000ff
(1721324724.175431) can0 18F0090B#fb68600b7e077d7d
(1721324724.175981) can0 0CEF0B2A#7ecdce00fcfaff97
(1721324724.177472) can0 0CF00400#0e7d7d0000000f7d
(1721324724.179331) can0 0CF00203#cc0000fff00000ff
(1721324724.179923) can0 08F06203#ffffffff7f7dffff
(1721324724.180502) can0 0CF02903#708a7dffffffffff
(1721324724.181093) can0 18FEF000#ffffffffffffffff
(1721324724.181677) can0 0CFF0B17#ff0000003ff8ffff
(1721324724.183056) can0 18FF4003#7cfc3f00fa0345fc
(1721324724.183812) can0 0CFF0211#fc602d00000000ff
(1721324724.185468) can0 08FE6E0B#0000000000000000
(1721324724.186037) can0 0CF00300#d3ff00ffff1f647d
(1721324724.186615) can0 10F007D1#ffff0fffffffffff
(1721324724.187177) can0 10FE6F2A#ffff00d0007d00ff
(1721324724.187730) can0 18F0090B#fb68600b7e077d7d
(1721324724.189295) can0 0CF00203#cc0000fff00000ff
(1721324724.189885) can0 10F007E8#00ff00ffffffffff
(1721324724.190460) can0 08F06203#ffffffff7f7dffff
(1721324724.191035) can0 18FF102A#ff00ffff00403ff3
(1721324724.191598) can0 0CF02903#708a7dffffffffff
(1721324724.192178) can0 0CFF2B17#fffffffffffdffff
(1721324724.192762) can0 18FF5400#ffff11f1fcffffff
(1721324724.193303) can0 18EBFF11#012e323432313939
(1721324724.193876) can0 18FEDF00#7da0287d7dfffff0
(1721324724.194446) can0 0CFF0211#fc602d00000000ff
(1721324724.195024) can0 18FDC600#ff00ffffffffffff
(1721324724.195578) can0 0CEF0B2A#7ecdce00fcfaff58
(1721324724.196128) can0 18F0090B#fb68600b7e077d7d
(1721324724.196678) can0 1CEBFF0F#0219e02e1f203519
(1721324724.197338) can0 0CF00400#0e7d7d0000000f7d
(1721324724.199306) can0 0CF00203#cc0000fff00000ff
(1721324724.199896) can0 08F06203#ffffffff7f7dffff
(1721324724.200478) can0 0CF02903#708a7dffffffffff
(1721324724.201100) can0 0CF00A00#00000000ffffffff
(1721324724.201684) can0 18FEF100#ff0000fcff001fcf
(1721324724.203580) can0 18FEF111#c700000700ffffc0
(1721324724.204145) can0 0CFF0211#fc602d00000000ff
(1721324724.204717) can0 18A9E8D1#fdfffffffffffffd
(1721324724.205503) can0 08FE6E0B#0000000000000000
(1721324724.206069) can0 0CF00300#d3ff00ffff1f647d
(1721324724.206634) can0 0CF02F2A#04f8fff0ffffffff
(1721324724.207185) can0 18F0090B#fb68600b7e077d7d
(1721324724.207769) can0 0CFF83AE#fffffcffffffffff
(1721324724.208334) can0 18F0010B#000013ffff410b3f
(1721324724.209376) can0 0CF00203#cc0000fff00000ff
(1721324724.209977) can0 08F06203#ffffffff7f7dffff
(1721324724.210567) can0 0CF02903#708a7dffffffffff
(1721324724.211131) can0 18FEDF00#7da0287d7dfffff0
(1721324724.211714) can0 0CFF3F17#fffffffffffaffff
(1721324724.212306) can0 0CFF8317#3fffe7ffffffffff
(1721324724.212891) can0 18FE5817#ffffffff0c000c00
(1721324724.213662) can0 18F00111#ffffffff00ffffff
(1721324724.214241) can0 0CFF0211#fc602d00000000ff
(1721324724.214818) can0 18FEF011#fffffffffff1ccff
(1721324724.215446) can0 18F0090B#fb68600b7e077d7d
(1721324724.215994) can0 0CEF0B2A#7ecdce00fcfaffd9
(1721324724.216574) can0 18FEBF0B#00007d7d7d7dffff
(1721324724.217146) can0 18FEE000#cf060000cd060000
(1721324724.217719) can0 18FE4F0B#c100ffffffffffff
(1721324724.218295) can0 0CF00400#0e7d7d0000000f7d
(1721324724.218874) can0 18FDC40B#1c0019ffffffffff
(1721324724.219450) can0 0CF00203#cc0000fff00000ff
(1721324724.220046) can0 08F06203#ffffffff7f7dffff
(1721324724.220626) can0 0CF02903#708a7dffffffffff
(1721324724.223628) can0 0CF00311#dd0000ffffffffff
(1721324724.224204) can0 0CFF0211#fc602d00000000ff
(1721324724.225409) can0 08FE6E0B#0000000000000000
(1721324724.225977) can0 0CF00300#d3ff00ffff1f647d
(1721324724.226530) can0 18F0090B#fb68600b7e077d7d
(1721324724.227111) can0 18FC9600#0000ffffffffffff
(1721324724.227684) can0 18F0000F#f07d7df30fffff59
(1721324724.229319) can0 0CF00203#cc0000fff00000ff
(1721324724.229913) can0 08F06203#ffffffff7f7dffff
(1721324724.230491) can0 0CF02903#708a7dffffffffff
(1721324724.231071) can0 18FF5400#ffff11f1fcffffff
(1721324724.231647) can0 18FEDF00#7da0287d7dfffff0
(1721324724.233131) can0 18FF4003#7cfc3f00fa0345fc
(1721324724.233708) can0 0CFF0211#fc602d00000000ff
(1721324724.234288) can0 18FDA403#ffffffffffffffff
(1721324724.234864) can0 18F00503#7d00007d204e2046
(1721324724.235435) can0 18FE4A03#ffdd3f7d0f37f8ff
(1721324724.235984) can0 0CEF0B2A#7ecdce00fcfaff5a
(1721324724.236560) can0 0CF0D300#007df0fbfbff14ff
(1721324724.237136) can0 0CF0FA03#ffffffff03fcffff
(1721324724.237714) can0 0CF00400#0e7d7d0000000f7d
(1721324724.238293) can0 10F007D1#ffff0fffffffffff
(1721324724.238844) can0 18F0090B#fb68600b7e077d7d
(1721324724.239424) can0 18FF4103#2e09de0dffffffff
(1721324724.240011) can0 10F007E8#00ff00ffffffffff
(1721324724.240601) can0 18FFA003#fc3f00fcffff3b7e
(1721324724.241195) can0 18FAD303#ffffffffffffffff
(1721324724.241784) can0 0CFF2817#ffc03ffffaffffff
(1721324724.242349) can0 0CF00203#cc0000fff00000ff
(1721324724.242928) can0 0CFF2B17#fffffffffffdffff
(1721324724.243505) can0 08F06203#ffffffff7f7dffff
(1721324724.244052) can0 18EBFF11#0238385030312a32
(1721324724.244617) can0 0CF02903#708a7dffffffffff
(1721324724.245189) can0 0CFF0211#fc602d00000000ff
(1721324724.245754) can0 0CFF2537#030033f0e00fcdfd
(1721324724.246337) can0 08FE6E0B#0000000000000000
(1721324724.246905) can0 0CF00300#d3ff00ffff1f647d
(1721324724.247456) can0 18F0090B#fb68600b7e077d7d
(1721324724.248024) can0 1CEBFF0F#03783ffc0819ffff
(1721324724.249345) can0 0CF00203#cc0000fff00000ff
(1721324724.249941) can0 08F06203#ffffffff7f7dffff
(1721324724.250521) can0 0CF02903#708a7dffffffffff
(1721324724.251092) can0 18FEDF00#7da0287d7dfffff0
(1721324724.251684) can0 0CF00A00#00000000ffffffff
(1721324724.252268) can0 18FEF200#0000fffa2003faff
(1721324724.253676) can0 0CFF0211#fc602d00000000ff
(1721324724.255481) can0 18F0090B#fb68600b7e077d7d
(1721324724.256029) can0 0CEF0B2A#7ecdce00fcfafffb
(1721324724.256593) can0 0CF02F2A#04f8fff0ffffffff
(1721324724.257405) can0 0CF00400#0e7d7d0000000f7d
(1721324724.257993) can0 0CFF83AE#fffffcffffffffff
(1721324724.259333) can0 0CF00203#cc0000fff00000ff
(1721324724.259925) can0 08F06203#ffffffff7f7dffff
(1721324724.260504) can0 0CF02903#708a7dffffffffff
(1721324724.261089) can0 0C0A002A#c0ffffffffffffff
(1721324724.263635) can0 0CFF0211#fc602d00000000ff
(1721324724.264209) can0 18FE5BE8#43fffffcfcff01ff
(1721324724.264765) can0 18FF21E8#0f0f000340f0ff30
(1721324724.265405) can0 08FE6E0B#0000000000000000
(1721324724.265979) can0 0CF00300#d3ff00ffff1f647d
(1721324724.266533) can0 18F0090B#fb68600b7e0f7d7d
(1721324724.269285) can0 0CF00203#cc0000fff00000ff
(1721324724.269878) can0 08F06203#ffffffff7f7dffff
(1721324724.270462) can0 0CF02903#708a7dffffffffff
(1721324724.271042) can0 18FF5400#ffff11f1fcffffff
(1721324724.271618) can0 18FEDF00#7da0287d7dfffff0
(1721324724.272206) can0 18F00100#ffffffffffffffff
(1721324724.273526) can0 0CF00311#dd0000ffffffffff
(1721324724.274108) can0 0CFF0211#fc602d00000000ff
(1721324724.274681) can0 0CFDCC37#0f007fffffffffff
(1721324724.275257) can0 0CFE4137#0f030333ffffffff
(1721324724.275810) can0 0CEF0B2A#7ecdce00fcfaff1c
(1721324724.276381) can0 18D0FF37#7f00ffffffffffff
(1721324724.276937) can0 18F0090B#fb68600b7e0f7d7d
(1721324724.277514) can0 0CF00400#0e7d7d0000000f7d
(1721324724.279320) can0 0CF00203#cc0000fff00000ff
(1721324724.279911) can0 08F06203#ffffffff7f7dffff
(1721324724.280490) can0 0CF02903#708a7dffffffffff
(1721324724.281083) can0 18FEF000#ffffffffffffffff
(1721324724.281667) can0 0CFF0B17#ff0000003ff8ffff
(1721324724.282240) can0 0CFF2717#00f0f03ffcffffff
(1721324724.282822) can0 18FEFC17#ff35ffffffffffff
(1721324724.283391) can0 18FF4003#7cfc3f00fa0345fc
(1721324724.283963) can0 0CFF0211#fc602d00000000ff
(1721324724.284546) can0 18FD0517#ffffffffffffff3f
(1721324724.285118) can0 18FEAE17#ffff2f2fff00ffff
(1721324724.285682) can0 10FE6F2A#ffff00d0007d00ff
(1721324724.286268) can0 08FE6E0B#0000000000000000
(1721324724.286834) can0 0CF00300#d3ff00ffff1f647d
(1721324724.287391) can0 18F0090B#fb68600b7e0f7d7d
(1721324724.288419) can0 10F007D1#ffff0fffffffffff
(1721324724.289331) can0 0CF00203#cc0000fff00000ff
(1721324724.289921) can0 10F007E8#00ff00ffffffffff
(1721324724.290496) can0 08F06203#ffffffff7f7dffff
(1721324724.291068) can0 18FEDF00#7da0287d7dfffff0
(1721324724.291632) can0 0CF02903#708a7dffffffffff
(1721324724.292212) can0 0CFF2B17#fffffffffffdffff
(1721324724.292797) can0 18FF102A#ff00ffff00403ff3
(1721324724.293324) can0 18EBFF11#0334323139393932
(1721324724.293907) can0 0CFF0211#fc602d00000000ff
(1721324724.295580) can0 0CEF0B2A#7ecdce00fcfaff5d
(1721324724.296136) can0 18F0090B#fb68600b7e0f7d7d
(1721324724.297416) can0 0CF00400#0e7d7d0000000f7d
(1721324724.299325) can0 0CF00203#cc0000fff00000ff
(1721324724.299914) can0 08F06203#ffffffff7f7dffff
(1721324724.300495) can0 0CF02903#708a7dffffffffff
(1721324724.301094) can0 0CF00A00#00000000ffffffff
(1721324724.301678) can0 18FEF100#ff0000fcff001fcf
(1721324724.303580) can0 18FEF111#c700000700ffffc0
(1721324724.304157) can0 0CFF0211#fc602d00000000ff
(1721324724.305044) can0 18A9E8D1#fdfffffffffffffd
(1721324724.305608) can0 0CF02F2A#04f8fff0ffffffff
(1721324724.306180) can0 0CF00300#d3ff00ffff1f647d
(1721324724.306741) can0 18FECA0B#04ff76020d06ffff
(1721324724.307328) can0 08FE6E0B#0000000000000000
(1721324724.307912) can0 0CFF83AE#fffffcffffffffff
(1721324724.308469) can0 18F0090B#fb68600b7e0f7d7d
(1721324724.309036) can0 18F0010B#000013ffff410b3f
(1721324724.309612) can0 0CF00203#cc0000fff00000ff
(1721324724.310207) can0 08F06203#ffffffff7f7dffff
(1721324724.310805) can0 18FF5400#ffff11f1fcffffff
(1721324724.311362) can0 0CF02903#708a7dffffffffff
(1721324724.311945) can0 0CFF3F17#fffffffffffaffff
(1721324724.312517) can0 18FEDF00#7da0287d7dfffff0
(1721324724.313101) can0 0CFF4117#ffd3ffffffffffff
(1721324724.313692) can0 0CFD9200#f0ffffffffffffff
(1721324724.314260) can0 0CFF0211#fc602d00000000ff
(1721324724.314843) can0 0CFF8317#3fffe7ffffffffff
(1721324724.315419) can0 18F00111#ffffffff00ffffff
(1721324724.315978) can0 0CEF0B2A#7ecdce00fcfafffe
(1721324724.316526) can0 18F0090B#fb68600b7e177d7d
(1721324724.317098) can0 18FEE000#cf060000cd060000
(1721324724.317678) can0 18FEBF0B#00007d7d7d7dffff
(1721324724.318255) can0 0CF00400#0e7d7d0000000f7d
(1721324724.318826) can0 18FE4F0B#c100ffffffffffff
(1721324724.319402) can0 0CF00203#cc0000fff00000ff
(1721324724.319986) can0 18FDC40B#1c0019ffffffffff
(1721324724.320559) can0 08F06203#ffffffff7f7dffff
(1721324724.321129) can0 18FEF011#fffffffffff1ccff
(1721324724.321692) can0 0CF02903#708a7dffffffffff
(1721324724.322272) can0 18FEF717#ffffffffe800ffff
(1721324724.322861) can0 18FE5117#5fffffffffffffff
(1721324724.323450) can0 18FE5817#ffffffff0c000c00
(1721324724.324011) can0 0CF00311#dd0000ffffffffff
(1721324724.324586) can0 0CFF0211#fc602d00000000ff
(1721324724.325832) can0 0CF00300#d3ff00ffff1f647d
(1721324724.326418) can0 08FE6E0B#0000000000000000
(1721324724.326999) can0 18FC9600#0000ffffffffffff
(1721324724.327549) can0 18F0090B#fb68600b7e177d7d
(1721324724.328116) can0 18F0000F#f07d7df30fffff59
(1721324724.329368) can0 0CF00203#cc0000fff00000ff
(1721324724.329961) can0 08F06203#ffffffff7f7dffff
(1721324724.330543) can0 0CF02903#708a7dffffffffff
(1721324724.331111) can0 18FEDF00#7da0287d7dfffff0
(1721324724.333124) can0 18FF4003#7cfc3f00fa0345fc
(1721324724.333697) can0 0CFF0211#fc602d00000000ff
(1721324724.334282) can0 18FDA403#ffffffffffffffff
(1721324724.334865) can0 18F00503#7d00007d204e0000
(1721324724.335440) can0 18FE4A03#ffdd3f7d0f37f8ff
(1721324724.335999) can0 0CEF0B2A#7ecdce00fcfaff1f
(1721324724.336575) can0 0CF0D300#007df0fbfbff14ff
(1721324724.337155) can0 0CF0FA03#ffffffff03fcffff
(1721324724.337732) can0 0CF00400#0e7d7d0000000f7d
(1721324724.338284) can0 18F0090B#fb68600b7e1f7d7d
(1721324724.338668) can0 18EAFF11#ebfe00
(1721324724.339248) can0 18FF4103#2e09de0dffffffff
(1721324724.339840) can0 10F007E8#00ff00ffffffffff
(1721324724.340425) can0 18870003#fffffffffffcffff
(1721324724.340988) can0 18ECFF2A#20170004ffebfe00
(1721324724.341568) can0 0CFF2B17#fffffffffffdffff
(1721324724.342147) can0 18FECA11#00ff00000000ffff
(1721324724.342721) can0 18FFA003#fc3f00fcffff3b7e
(1721324724.343281) can0 18EBFF11#045030312affffff
(1721324724.343868) can0 18FAD303#ffffffffffffffff
(1721324724.344440) can0 0CFF0211#fc602d00000000ff
(1721324724.345016) can0 18FE8D03#e800ffffffffffff
(1721324724.345629) can0 1CECFF00#202c0007ffebfe00
(1721324724.346175) can0 18FEF703#ffffffffe900e700
(1721324724.346734) can0 0CF00300#d3ff00ffff1f647d
(1721324724.347303) can0 18ECFF0B#201b0004ffebfe00
(1721324724.347882) can0 18FAC803#fffefcffffffffff
(1721324724.348467) can0 08FE6E0B#0000000000000000
(1721324724.349046) can0 18FD9503#cfffffffffffffff
(1721324724.349603) can0 18F0090B#fb68600b7e1f7d7d
(1721324724.350192) can0 18FEF803#ffffffff00ffffff
(1721324724.350754) can0 1CECFFD1#20160004ffebfe00
(1721324724.351334) can0 18FE7003#ffffcc0cffffffff
(1721324724.351916) can0 10F007D1#ffff0fffffffffff
(1721324724.352490) can0 0CF00203#cc0000fff00000ff
(1721324724.353070) can0 18FF5400#ffff11f1fcffffff
(1721324724.353646) can0 08F06203#ffffffff7f7dffff
(1721324724.354220) can0 0CFF0211#fc602d00000000ff
(1721324724.354783) can0 0CF02903#708a7dffffffffff
(1721324724.355356) can0 18FEDF00#7da0287d7dfffff0
(1721324724.355910) can0 0CEF0B2A#7ecdce00fcfaffc0
(1721324724.356487) can0 0CF00203#cc0000fff00000ff
(1721324724.357075) can0 0CF00A00#00000000ffffffff
(1721324724.357651) can0 08F06203#ffffffff7f7dffff
(1721324724.358216) can0 0CF02F2A#04f8fff0ffffffff
(1721324724.358780) can0 0CF02903#708a7dffffffffff
(1721324724.359374) can0 0CFF83AE#fffffcffffffffff
(1721324724.359952) can0 0CF00203#cc0000fff00000ff
(1721324724.360489) can0 18F0090B#fb68600b7e277d7d
(1721324724.361064) can0 08F06203#ffffffff7f7dffff
(1721324724.361650) can0 0C0A002A#c0ffffffffffffff
(1721324724.362213) can0 0CF02903#708a7dffffffffff
(1721324724.362792) can0 18FEF200#0000fffa2003faff
(1721324724.363378) can0 1CECFFE8#20130003ffebfe00
(1721324724.363953) can0 0CF00400#0e7d7d0000000f7d
(1721324724.364525) can0 0CFF0211#fc602d00000000ff
(1721324724.365101) can0 18FE5BE8#43fffffcfcff01ff
(1721324724.365657) can0 18FF21E8#0f0f000340f0ff30
(1721324724.366242) can0 08FE6E0B#0000000000000000
(1721324724.366809) can0 0CF00300#d3ff00ffff1f647d
(1721324724.367357) can0 18F0090B#fb68600b7e277d7d
(1721324724.369334) can0 0CF00203#cc0000fff00000ff
(1721324724.369922) can0 08F06203#ffffffff7f7dffff
(1721324724.370499) can0 0CF02903#708a7dffffffffff
(1721324724.371070) can0 18FEDF00#7da0287d7dfffff0
(1721324724.371658) can0 18F00100#ffffffffffffffff
(1721324724.373515) can0 0CF00311#dd0000ffffffffff
(1721324724.374091) can0 0CFF0211#fc602d00000000ff
(1721324724.375418) can0 18F0090B#fb68600b7e2f7d7d
(1721324724.375970) can0 0CEF0B2A#7ecdce00fcfaff11
(1721324724.377511) can0 0CF00400#0e7d7d0000000f7d
(1721324724.379339) can0 0CF00203#cc0000fff00000ff
(1721324724.379930) can0 08F06203#ffffffff7f7dffff
(1721324724.380510) can0 0CF02903#708a7dffffffffff
(1721324724.381103) can0 18FEF000#ffffffffffffffff
(1721324724.381686) can0 0CFF0B17#ff0000003ff8ffff
(1721324724.382911) can0 1CECFF03#201c0004ffebfe00
(1721324724.383483) can0 18FF4003#7cfc3f00fa0345fc
(1721324724.384054) can0 0CFF0211#fc602d00000000ff
(1721324724.385578) can0 10FE6F2A#ffff00d0007d00ff
(1721324724.386164) can0 08FE6E0B#0000000000000000
(1721324724.386732) can0 0CF00300#d3ff00ffff1f647d
(1721324724.387279) can0 18F0090B#fb68600b7e2f7d7d
(1721324724.389331) can0 0CF00203#cc0000fff00000ff
(1721324724.389935) can0 10F007E8#00ff00ffffffffff
(1721324724.390497) can0 08F06203#ffffffff7f7dffff
(1721324724.391071) can0 18FF102A#ff00ffff00403ff3
(1721324724.391635) can0 0CF02903#708a7dffffffffff
(1721324724.392216) can0 0CFF2B17#fffffffffffdffff
(1721324724.392756) can0 18EBFF2A#01424e4457532a46
(1721324724.393334) can0 18FF5400#ffff11f1fcffffff
(1721324724.393910) can0 0CFF0211#fc602d00000000ff
(1721324724.394479) can0 18FEDF00#7da0287d7dfffff0
(1721324724.395019) can0 1CEBFFD1#01424e4457532a53
(1721324724.395571) can0 1CEBFF00#01434d4d4e532a36
(1721324724.396123) can0 0CEF0B2A#7ecdce00fcfaff82
(1721324724.396706) can0 10F007D1#ffff0fffffffffff
(1721324724.397252) can0 18F0090B#fb68600b7e2f7d7d
(1721324724.397830) can0 0CF00400#0e7d7d0000000f7d
(1721324724.399331) can0 0CF00203#cc0000fff00000ff
(1721324724.399917) can0 08F06203#ffffffff7f7dffff
(1721324724.400496) can0 0CF02903#708a7dffffffffff
(1721324724.401072) can0 18FDB400#24251025ffffffff
(1721324724.401663) can0 0CF00A00#00000000ffffffff
(1721324724.402248) can0 18FEF100#ff0000fcff001fcf
(1721324724.403672) can0 18FEF111#c700000700ffffc0
(1721324724.404244) can0 18A9E8D1#fdfffffffffffffd
(1721324724.404815) can0 0CFF0211#fc602d00000000ff
(1721324724.405415) can0 18EBFF0B#01424e4457532a45
(1721324724.405982) can0 0CF00300#d3ff00ffff1f647d
(1721324724.406566) can0 08FE6E0B#0000000000000000
(1721324724.407132) can0 0CF02F2A#04f8fff0ffffffff
(1721324724.407714) can0 0CFF83AE#fffffcffffffffff
(1721324724.408262) can0 18F0090B#fb68600b7e2f7d7d
(1721324724.408830) can0 18F0010B#000013ffff410b3f
(1721324724.409407) can0 0CF00203#cc0000fff00000ff
(1721324724.410002) can0 08F06203#ffffffff7f7dffff
(1721324724.410582) can0 0CF02903#708a7dffffffffff
(1721324724.411154) can0 18FEDF00#7da0287d7dfffff0
(1721324724.411737) can0 0CFF3F17#fffffffffffaffff
(1721324724.412329) can0 0CFF8317#3fffe7ffffffffff
(1721324724.412913) can0 18FE5817#ffffffff0c000c00
(1721324724.413605) can0 18F00111#ffffffff00ffffff
(1721324724.414186) can0 0CFF0211#fc602d00000000ff
(1721324724.414766) can0 18FEF011#fffffffffff1ccff
(1721324724.415473) can0 18F0090B#fb68600b7e2f7d7d
(1721324724.416024) can0 0CEF0B2A#7ecdce00fcfaff93
(1721324724.416603) can0 18FEBF0B#00007d7d7d7dffff
(1721324724.417178) can0 18FEE000#cf060000cd060000
(1721324724.417751) can0 18FE4F0B#c100ffffffffffff
(1721324724.418324) can0 0CF00400#0e7d7d0000000f7d
(1721324724.418904) can0 18FDC40B#1c0019ffffffffff
(1721324724.419480) can0 0CF00203#cc0000fff00000ff
(1721324724.420077) can0 08F06203#ffffffff7f7dffff
(1721324724.420658) can0 0CF02903#708a7dffffffffff
(1721324724.421235) can0 18FDB300#ffff3025ffffffff
(1721324724.423648) can0 0CF00311#dd0000ffffffffff
(1721324724.424194) can0 1CEBFFE8#01424e4457532a46
(1721324724.424766) can0 0CFF0211#fc602d00000000ff
(1721324724.425501) can0 08FE6E0B#0000000000000000
(1721324724.426070) can0 0CF00300#d3ff00ffff1f647d
(1721324724.426617) can0 18F0090B#fb68600b7e2f7d7d
(1721324724.427204) can0 18FC9600#0000ffffffffffff
(1721324724.427775) can0 18F0000F#f07d7df30fffff59
(1721324724.429379) can0 0CF00203#cc0000fff00000ff
(1721324724.429965) can0 08F06203#ffffffff7f7dffff
(1721324724.430542) can0 0CF02903#708a7dffffffffff
(1721324724.431122) can0 18FF5400#ffff11f1fcffffff
(1721324724.431706) can0 18FEDF00#7da0287d7dfffff0
(1721324724.432961) can0 1CEBFF03#014541544f4e2a45
(1721324724.433532) can0 18FF4003#7cfc3f00fa0345fc
(1721324724.434104) can0 0CFF0211#fc602d00000000ff
(1721324724.434688) can0 18FDA403#ffffffffffffffff
(1721324724.435263) can0 18F00503#7d00007d204e2046
(1721324724.435821) can0 0CEF0B2A#7ecdce00fcfafff4
(1721324724.436393) can0 0CF0D300#007df0fbfbff14ff
(1721324724.436939) can0 18F0090B#fb68600b7e277d7d
(1721324724.437500) can0 18FE4A03#ffdd3f7d0f37f8ff
(1721324724.438080) can0 0CF00400#0e7d7d0000000f7d
(1721324724.438652) can0 0CF0FA03#ffffffff03fcffff
(1721324724.439247) can0 18FF4103#2e09de0dffffffff
(1721324724.439835) can0 10F007E8#00ff00ffffffffff
(1721324724.440410) can0 18FFA003#fc3f00fcffff3b7e
(1721324724.440965) can0 1CEBFFD1#024450352a323257
(1721324724.441538) can0 0CFF2B17#fffffffffffdffff
(1721324724.442127) can0 18FAD303#ffffffffffffffff
(1721324724.442705) can0 10F007D1#ffff0fffffffffff
(1721324724.443281) can0 0CF00203#cc0000fff00000ff
(1721324724.443857) can0 0CFF0211#fc602d00000000ff
(1721324724.444433) can0 08F06203#ffffffff7f7dffff
(1721324724.445016) can0 0CF02903#708a7dffffffffff
(1721324724.445778) can0 0CF00300#d3ff00ffff1f647d
(1721324724.446358) can0 08FE6E0B#0000000000000000
(1721324724.446911) can0 1CEBFF00#0258317532314431
(1721324724.447472) can0 18F0090B#fb68600b7e277d7d
(1721324724.449311) can0 0CF00203#cc0000fff00000ff
(1721324724.449903) can0 08F06203#ffffffff7f7dffff
(1721324724.450482) can0 0CF02903#708a7dffffffffff
(1721324724.451053) can0 18FEDF00#7da0287d7dfffff0
(1721324724.451646) can0 0CF00A00#00000000ffffffff
(1721324724.452229) can0 18FEF200#0000fffa2003faff
(1721324724.453598) can0 0CFF0211#fc602d00000000ff
(1721324724.455419) can0 18F0090B#fb68600b7e277d7d
(1721324724.455967) can0 0CEF0B2A#7ecdce00fcfaff85
(1721324724.456530) can0 0CF02F2A#04f8fff0ffffffff
(1721324724.457453) can0 0CF00400#0e7d7d0000000f7d
(1721324724.458040) can0 0CFF83AE#fffffcffffffffff
(1721324724.459347) can0 0CF00203#cc0000fff00000ff
(1721324724.459939) can0 08F06203#ffffffff7f7dffff
(1721324724.460518) can0 0CF02903#708a7dffffffffff
(1721324724.461103) can0 0C0A002A#c0ffffffffffffff
(1721324724.463651) can0 0CFF0211#fc602d00000000ff
(1721324724.464227) can0 18FE5BE8#43fffffcfcff01ff
(1721324724.464803) can0 18FECAE8#c0ff00000000ffff
(1721324724.465350) can0 18EBFF0B#024338304553502b
(1721324724.465908) can0 18FF21E8#0f0f000340f0ff30
(1721324724.466490) can0 08FE6E0B#0000000000000000
(1721324724.467058) can0 0CF00300#d3ff00ffff1f647d
(1721324724.467615) can0 18F0090B#fb68600b7e1f7d7d
(1721324724.469295) can0 0CF00203#cc0000fff00000ff
(1721324724.469890) can0 08F06203#ffffffff7f7dffff
(1721324724.470469) can0 0CF02903#708a7dffffffffff
(1721324724.471048) can0 18FF5400#ffff11f1fcffffff
(1721324724.471591) can0 18EBFF2A#024c5232312a3232
(1721324724.472159) can0 18FEC117#a7b10000ffffffff
(1721324724.472731) can0 18FEDF00#7da0287d7dfffff0
(1721324724.473319) can0 18F00100#ffffffffffffffff
(1721324724.473894) can0 0CF00311#dd0000ffffffffff
(1721324724.474467) can0 0CFF0211#fc602d00000000ff
(1721324724.475604) can0 0CEF0B2A#7ecdce00fcfaff96
(1721324724.476159) can0 18F0090B#fb68600b7e1f7d7d
(1721324724.477363) can0 0CF00400#0e7d7d0000000f7d
(1721324724.479351) can0 0CF00203#cc0000fff00000ff
(1721324724.479940) can0 08F06203#ffffffff7f7dffff
(1721324724.480524) can0 0CF02903#708a7dffffffffff
(1721324724.481116) can0 18FEF000#ffffffffffffffff
(1721324724.481702) can0 0CFF0B17#ff0000003ff8ffff
(1721324724.482910) can0 1CEBFF03#02454f2d78784631
(1721324724.483478) can0 18FF4003#7cfc3f00fa0345fc
(1721324724.484049) can0 0CFF0211#fc602d00000000ff
(1721324724.485587) can0 10FE6F2A#ffff00d0007d00ff
(1721324724.486170) can0 08FE6E0B#0000000000000000
(1721324724.486738) can0 0CF00300#d3ff00ffff1f647d
(1721324724.487286) can0 18F0090B#fb68600b7e177d7d
(1721324724.489343) can0 0CF00203#cc0000fff00000ff
(1721324724.489931) can0 10F007E8#00ff00ffffffffff
(1721324724.490507) can0 08F06203#ffffffff7f7dffff
(1721324724.491077) can0 18FEDF00#7da0287d7dfffff0
(1721324724.491642) can0 0CF02903#708a7dffffffffff
(1721324724.492222) can0 0CFF2B17#fffffffffffdffff
(1721324724.492798) can0 18FF102A#ff00ffff00403ff3
(1721324724.493346) can0 1CEBFFD1#033332303632582a
(1721324724.493920) can0 0CFF0211#fc602d00000000ff
(1721324724.494977) can0 10F007D1#ffff0fffffffffff
(1721324724.495525) can0 18F0090B#fb68600b7e177d7d
(1721324724.496077) can0 0CEF0B2A#7ecdce00fcfaff97
(1721324724.497393) can0 0CF00400#0e7d7d0000000f7d
(1721324724.499295) can0 0CF00203#cc0000fff00000ff
(1721324724.499890) can0 08F06203#ffffffff7f7dffff
(1721324724.500470) can0 0CF02903#708a7dffffffffff
(1721324724.501114) can0 0CF00A00#00000000ffffffff
(1721324724.501699) can0 18FEF100#ff0000fcff001fcf
(1721324724.502267) can0 1CEBFF00#0335303030303030
(1721324724.503311) can0 18A9E8D1#fdfffffffffffffd
(1721324724.503885) can0 0CFF0211#fc602d00000000ff
(1721324724.504434) can0 1CEBFFE8#024c4332302a3031
(1721324724.505003) can0 18FEF111#c700000700ffffc0
(1721324724.505610) can0 0CF02F2A#04f8fff0ffffffff
(1721324724.506195) can0 08FE6E0B#0000000000000000
(1721324724.506763) can0 0CF00300#d3ff00ffff1f647d
(1721324724.507318) can0 18F0090B#fb68600b7e0f7d7d
(1721324724.507904) can0 0CFF83AE#fffffcffffffffff
(1721324724.508468) can0 18F0010B#000013ffff410b3f
(1721324724.509396) can0 0CF00203#cc0000fff00000ff
(1721324724.509989) can0 08F06203#ffffffff7f7dffff
(1721324724.510586) can0 0CF02903#708a7dffffffffff
(1721324724.511148) can0 18FF5400#ffff11f1fcffffff
(1721324724.511733) can0 0CFF3F17#fffffffffffaffff
(1721324724.512303) can0 18FEDF00#7da0287d7dfffff0
(1721324724.512892) can0 0CFF8317#3fffe7ffffffffff
(1721324724.513476) can0 18FE5817#ffffffff0c000c00
(1721324724.514059) can0 0CFF0211#fc602d00000000ff
(1721324724.514636) can0 18F00111#ffffffff00ffffff
(1721324724.515215) can0 18FEF011#fffffffffff1ccff
(1721324724.515762) can0 0CEF0B2A#7ecdce00fcfaff58
(1721324724.516319) can0 18F0090B#fb68600b7e0f7d7d
(1721324724.516891) can0 18FEE000#cf060000cd060000
(1721324724.517473) can0 18FEBF0B#00007d7d7d7dffff
(1721324724.518047) can0 0CF00400#0e7d7d0000000f7d
(1721324724.518617) can0 18FE4F0B#c100ffffffffffff
(1721324724.519201) can0 18FDC40B#1c0019ffffffffff
(1721324724.519776) can0 0CF00203#cc0000fff00000ff
(1721324724.520368) can0 08F06203#ffffffff7f7dffff
(1721324724.520949) can0 0CF02903#708a7dffffffffff
(1721324724.523709) can0 0CF00311#dd0000ffffffffff
(1721324724.524287) can0 0CFF0211#fc602d00000000ff
(1721324724.525251) can0 18EBFF0B#032a363132393232
(1721324724.525842) can0 08FE6E0B#0000000000000000
(1721324724.526407) can0 0CF00300#d3ff00ffff1f647d
(1721324724.526961) can0 18F0090B#fb68600b7e077d7d
(1721324724.527544) can0 18FC9600#0000ffffffffffff
(1721324724.528117) can0 18F0000F#f07d7df30fffff59
(1721324724.529380) can0 0CF00203#cc0000fff00000ff
(1721324724.529966) can0 08F06203#ffffffff7f7dffff
(1721324724.530545) can0 0CF02903#708a7dffffffffff
(1721324724.531116) can0 18FEDF00#7da0287d7dfffff0
(1721324724.532947) can0 1CEBFF03#033132432a5a3032
(1721324724.533520) can0 18FF4003#7cfc3f00fa0345fc
(1721324724.534087) can0 0CFF0211#fc602d00000000ff
(1721324724.534649) can0 18FECA03#c7ffcf040904ffff
(1721324724.535249) can0 18FDA403#ffffffffffffffff
(1721324724.535801) can0 0CEF0B2A#7ecdce00fcfaffd9
(1721324724.536377) can0 0CF0D300#007df0fbfbff14ff
(1721324724.536944) can0 18F00503#7d00007d204e2046
(1721324724.537494) can0 18F0090B#fb68600b7eff7c7d
(1721324724.538072) can0 0CF00400#0e7d7d0000000f7d
(1721324724.538634) can0 18FE4A03#ffdd3f7d0f37f8ff
(1721324724.539226) can0 0CF0FA03#ffffffff03fcffff
(1721324724.539813) can0 10F007E8#00ff00ffffffffff
(1721324724.540393) can0 18FF4103#2e09de0dffffffff
(1721324724.540983) can0 18FFA003#fc3f00fcffff3b7e
(1721324724.541564) can0 0CFF2B17#fffffffffffdffff
(1721324724.542155) can0 18FAD303#ffffffffffffffff
(1721324724.542732) can0 1CEBFFD1#042affffffffffff
(1721324724.543307) can0 0CF00203#cc0000fff00000ff
(1721324724.543883) can0 0CFF0211#fc602d00000000ff
(1721324724.544458) can0 08F06203#ffffffff7f7dffff
(1721324724.545038) can0 0CF02903#708a7dffffffffff
(1721324724.545633) can0 10F007D1#ffff0fffffffffff
(1721324724.546206) can0 08FE6E0B#0000000000000000
(1721324724.546773) can0 0CF00300#d3ff00ffff1f647d
(1721324724.547323) can0 18F0090B#fb68600b7eff7c7d
(1721324724.549330) can0 0CF00203#cc0000fff00000ff
(1721324724.549923) can0 08F06203#ffffffff7f7dffff
(1721324724.550501) can0 0CF02903#708a7dffffffffff
(1721324724.551080) can0 18FF5400#ffff11f1fcffffff
(1721324724.551623) can0 18EBFF2A#0332363030343431
(1721324724.552196) can0 18FEDF00#7da0287d7dfffff0
(1721324724.552788) can0 0CF00A00#00000000ffffffff
(1721324724.553373) can0 18FEF200#0000fffa2003faff
(1721324724.553945) can0 0CFF0211#fc602d00000000ff
(1721324724.555469) can0 18F0090B#fb68600b7ef77c7d
(1721324724.556016) can0 0CEF0B2A#7ecdce00fcfaff5a
(1721324724.556590) can0 0CF02F2A#04f8fff0ffffffff
(1721324724.557141) can0 1CEBFF00#0430302a38303436
(1721324724.557727) can0 0CFF83AE#fffffcffffffffff
(1721324724.558300) can0 0CF00400#0e7d7d0000000f7d
(1721324724.559338) can0 0CF00203#cc0000fff00000ff
(1721324724.559929) can0 08F06203#ffffffff7f7dffff
(1721324724.560510) can0 0CF02903#708a7dffffffffff
(1721324724.561095) can0 0C0A002A#c0ffffffffffffff
(1721324724.561673) can0 0CFD9200#f0ffffffffffffff
(1721324724.562261) can0 18FE5117#5fffffffffffffff
(1721324724.563732) can0 0CFF0211#fc602d00000000ff
(1721324724.564305) can0 18FE5BE8#43fffffcfcff01ff
(1721324724.564862) can0 18FF21E8#0f0f000340f0ff30
(1721324724.565446) can0 08FE6E0B#0000000000000000
(1721324724.566016) can0 0CF00300#d3ff00ffff1f647d
(1721324724.566561) can0 18F0090B#fb68600b7ef77c7d
(1721324724.569286) can0 0CF00203#cc0000fff00000ff
(1721324724.569885) can0 08F06203#ffffffff7f7dffff
(1721324724.570470) can0 0CF02903#708a7dffffffffff
(1721324724.571042) can0 18FEDF00#7da0287d7dfffff0
(1721324724.571630) can0 18F00100#ffffffffffffffff
(1721324724.573481) can0 0CF00311#dd0000ffffffffff
(1721324724.574063) can0 0CFF0211#fc602d00000000ff
(1721324724.574637) can0 0CFF2811#ffffffff0f3fff00
(1721324724.575446) can0 18F0090B#fb68600b7eef7c7d
(1721324724.575998) can0 0CEF0B2A#7ecdce00fcfafffb
(1721324724.577378) can0 0CF00400#0e7d7d0000000f7d
(1721324724.579350) can0 0CF00203#cc0000fff00000ff
(1721324724.579948) can0 08F06203#ffffffff7f7dffff
(1721324724.580522) can0 0CF02903#708a7dffffffffff
(1721324724.581114) can0 18FEF000#ffffffffffffffff
(1721324724.581700) can0 0CFF0B17#ff0000003ff8ffff
(1721324724.582891) can0 1CEBFF03#0437333036322a2a
(1721324724.583462) can0 18FF4003#7cfc3f00fa0345fc
(1721324724.584036) can0 0CFF0211#fc602d00000000ff
(1721324724.584597) can0 1CEBFFE8#033933002a2affff
(1721324724.585433) can0 18EBFF0B#04303730322a2aff
(1721324724.586005) can0 0CF00300#d3ff00ffff1f647d
(1721324724.586586) can0 08FE6E0B#0000000000000000
(1721324724.587150) can0 10FE6F2A#ffff00d0007d00ff
(1721324724.587705) can0 18F0090B#fb68600b7eef7c7d
(1721324724.589408) can0 0CF00203#cc0000fff00000ff
(1721324724.589996) can0 10F007E8#00ff00ffffffffff
(1721324724.590573) can0 08F06203#ffffffff7f7dffff
(1721324724.591145) can0 18FF102A#ff00ffff00403ff3
(1721324724.591709) can0 0CF02903#708a7dffffffffff
(1721324724.592289) can0 0CFF2B17#fffffffffffdffff
(1721324724.592879) can0 18FF5400#ffff11f1fcffffff
(1721324724.593445) can0 18FEDF00#7da0287d7dfffff0
(1721324724.594021) can0 0CFF0211#fc602d00000000ff
(1721324724.595499) can0 18F0090B#fb68600b7eef7c7d
(1721324724.596049) can0 0CEF0B2A#7ecdce00fcfaff1c
(1721324724.596892) can0 10F007D1#ffff0fffffffffff
(1721324724.597470) can0 0CF00400#0e7d7d0000000f7d
(1721324724.599320) can0 0CF00203#cc0000fff00000ff
(1721324724.599913) can0 08F06203#ffffffff7f7dffff
(1721324724.600491) can0 0CF02903#708a7dffffffffff
(1721324724.601079) can0 18FCDC00#82fefefd00000000
(1721324724.601671) can0 0CF00A00#00000000ffffffff
(1721324724.602255) can0 18FEF100#ff0000fcff001fcf
(1721324724.603081) can0 18A9E8D1#fdfffffffffffffd
(1721324724.603662) can0 18FEF111#c700000700ffffc0
(1721324724.604240) can0 0CFF0211#fc602d00000000ff
(1721324724.605608) can0 0CF02F2A#04f8fff0ffffffff
(1721324724.606193) can0 08FE6E0B#0000000000000000
(1721324724.606775) can0 14FC9800#ff000000000000ff
(1721324724.607328) can0 18F0090B#fb6860077eef7c7d
(1721324724.607897) can0 0CF00300#d3ff00ffff1f647d
(1721324724.608481) can0 0CFF83AE#fffffcffffffffff
(1721324724.609044) can0 18F0010B#000013ffff410b3f
(1721324724.609623) can0 0CF00203#cc0000fff00000ff
(1721324724.610214) can0 08F06203#ffffffff7f7dffff
(1721324724.610794) can0 0CF02903#708a7dffffffffff
(1721324724.611377) can0 0CFF3F17#fffffffffffaffff
(1721324724.611948) can0 18FEDF00#7da0287d7dfffff0
(1721324724.612536) can0 0CFF8317#3fffe7ffffffffff
(1721324724.613091) can0 1CEBFF00#05363330362a3132
(1721324724.613665) can0 18F00111#ffffffff00ffffff
(1721324724.614239) can0 18FEFA17#005e5effffffffff
(1721324724.614809) can0 0CFF0211#fc602d00000000ff
(1721324724.615383) can0 18FE5817#ffffffff0c000c00
(1721324724.615932) can0 0CEF0B2A#7ecdce00fcfaff5d
(1721324724.616487) can0 18F0090B#fb6860077ef77c7d
(1721324724.617056) can0 18FEE000#cf060000cd060000
(1721324724.617635) can0 18FEBF0B#00007d7d7d7dffff
(1721324724.618215) can0 0CF00400#0e7d7d0000000f7d
(1721324724.618786) can0 18FE4F0B#c100ffffffffffff
(1721324724.619352) can0 18FEF011#fffffffffff1ccff
(1721324724.619930) can0 0CF00203#cc0000fff00000ff
(1721324724.620507) can0 18FDC40B#1c0019ffffffffff
(1721324724.621082) can0 08F06203#ffffffff7f7dffff
(1721324724.621664) can0 0CF02903#708a7dffffffffff
(1721324724.623739) can0 0CF00311#dd0000ffffffffff
(1721324724.624310) can0 0CFF0211#fc602d00000000ff
(1721324724.625445) can0 08FE6E0B#0000000000000000
(1721324724.626016) can0 0CF00300#d3ff00ffff1f647d
(1721324724.626564) can0 18F0090B#fb6860077ef77c7d
(1721324724.627151) can0 18FC9600#0000ffffffffffff
(1721324724.627720) can0 18F0000F#f07d7df30fffff59
(1721324724.628301) can0 19FF479F#f0ffffffffffffff
(1721324724.629380) can0 0CF00203#cc0000fff00000ff
(1721324724.629959) can0 18FECAD1#00ff00000000ffff
(1721324724.630535) can0 08F06203#ffffffff7f7dffff
(1721324724.631116) can0 18FF5400#ffff11f1fcffffff
(1721324724.631678) can0 0CF02903#708a7dffffffffff
(1721324724.632250) can0 18EBFF2A#042a2affffffffff
(1721324724.632822) can0 18FEDF00#7da0287d7dfffff0
(1721324724.633397) can0 18FF4003#7cfc3f00fa0345fc
(1721324724.633967) can0 0CFF0211#fc602d00000000ff
(1721324724.634548) can0 18FDA403#ffffffffffffffff
(1721324724.635123) can0 18F00503#7d00007d204e2046
(1721324724.635683) can0 0CEF0B2A#7ecdce00fcfafffe
(1721324724.636261) can0 0CF0D300#007df0fbfbff14ff
(1721324724.636817) can0 18F0090B#fb6860077ef77c7d
(1721324724.637375) can0 18FE4A03#ffdd3f7d0f37f8ff
(1721324724.637952) can0 0CF00400#0e7d7d0000000f7d
(1721324724.638524) can0 0CF0FA03#ffffffff03fcffff
(1721324724.639106) can0 18FECA9F#00ff00000000ffff
(1721324724.639686) can0 18FF4103#2e09de0dffffffff
(1721324724.640272) can0 10F007E8#00ff00ffffffffff
(1721324724.640857) can0 18FFA003#fc3f00fcffff3b7e
(1721324724.641432) can0 0CFF2B17#fffffffffffdffff
(1721324724.642019) can0 18FAD303#ffffffffffffffff
(1721324724.642610) can0 0CF00203#cc0000fff00000ff
(1721324724.643201) can0 08F06203#ffffffff7f7dffff
(1721324724.643790) can0 0CF02903#708a7dffffffffff
(1721324724.644352) can0 0CFF0211#fc602d00000000ff
(1721324724.645494) can0 08FE6E0B#0000000000000000
(1721324724.646063) can0 0CF00300#d3ff00ffff1f647d
(1721324724.646617) can0 18F0090B#fb6860077eff7c7d
(1721324724.648267) can0 10F007D1#ffff0fffffffffff
(1721324724.649326) can0 0CF00203#cc0000fff00000ff
(1721324724.649923) can0 08F06203#ffffffff7f7dffff
(1721324724.650500) can0 0CF02903#708a7dffffffffff
(1721324724.651072) can0 18FEDF00#7da0287d7dfffff0
(1721324724.651664) can0 0CF00A00#00000000ffffffff
(1721324724.652244) can0 18FEF200#0000fffa2103faff
(1721324724.652820) can0 18FEEF00#ffffff00fe7cfffa
(1721324724.653738) can0 0CFF0211#fc602d00000000ff
(1721324724.655327) can0 18F0090B#fb6860077eff7c7d
(1721324724.655890) can0 0CEF0B2A#7ecdce00fcfaff1f
(1721324724.656451) can0 0CF02F2A#04f8fff0ffffffff
(1721324724.657415) can0 0CF00400#0e7d7d0000000f7d
(1721324724.658002) can0 0CFF83AE#fffffcffffffffff
(1721324724.659356) can0 0CF00203#cc0000fff00000ff
(1721324724.659959) can0 08F06203#ffffffff7f7dffff
(1721324724.660529) can0 0CF02903#708a7dffffffffff
(1721324724.661112) can0 0C0A002A#c0ffffffffffffff
(1721324724.663745) can0 18FE5BE8#43fffffcfcff01ff
(1721324724.664316) can0 0CFF0211#fc602d00000000ff
(1721324724.664871) can0 18FF21E8#0f0f000340f0ff30
(1721324724.665455) can0 08FE6E0B#0000000000000000
(1721324724.666026) can0 0CF00300#d3ff00ffff1f647d
(1721324724.666579) can0 18F0090B#fb6860077eff7c7d
(1721324724.667144) can0 1CEBFF00#0633343230000000
(1721324724.669313) can0 0CF00203#cc0000fff00000ff
(1721324724.669894) can0 08F06203#ffffffff7f7dffff
(1721324724.670471) can0 0CF02903#708a7dffffffffff
(1721324724.671052) can0 18FF5400#ffff11f1fcffffff
(1721324724.671628) can0 18FEDF00#7da0287d7dfffff0
(1721324724.672217) can0 18F00100#ffffffffffffffff
(1721324724.672794) can0 18FEF600#ff004131ffffffff
(1721324724.673721) can0 0CF00311#dd0000ffffffffff
(1721324724.674293) can0 0CFF0211#fc602d00000000ff
(1721324724.675506) can0 18F0090B#fb6860077eff7c7d
(1721324724.676060) can0 0CEF0B2A#7ecdce00fcfaffc0
(1721324724.677502) can0 0CF00400#0e7d7d0000000f7d
(1721324724.679357) can0 0CF00203#cc0000fff00000ff
(1721324724.679950) can0 08F06203#ffffffff7f7dffff
(1721324724.680529) can0 0CF02903#708a7dffffffffff
(1721324724.681120) can0 18FEF000#ffffffffffffffff
(1721324724.681707) can0 0CFF0B17#ff0000003ff8ffff
(1721324724.683067) can0 18FF4003#7cfc3f00fa0345fc
(1721324724.683814) can0 0CFF0211#fc602d00000000ff
(1721324724.685394) can0 08FE6E0B#0000000000000000
(1721324724.685962) can0 0CF00300#d3ff00ffff1f647d
(1721324724.686525) can0 10FE6F2A#ffff00d0007d00ff
(1721324724.687087) can0 18F0090B#fb6860077e077d7d
(1721324724.687478) can0 18EAFF0B#e5fe00
(1721324724.689315) can0 0CF00203#cc0000fff00000ff
(1721324724.689900) can0 10F007E8#00ff00ffffffffff
(1721324724.690475) can0 08F06203#ffffffff7f7dffff
(1721324724.691044) can0 18FEE500#da01000029020000
(1721324724.691607) can0 0CF02903#708a7dffffffffff
(1721324724.692186) can0 0CFF2B17#fffffffffffdffff
(1721324724.692759) can0 18FEDF00#7da0287d7dfffff0
(1721324724.693338) can0 18FF102A#ff00ffff00403ff3
(1721324724.693920) can0 0CFF0211#fc602d00000000ff
(1721324724.694488) can0 18FDC600#ff00ffffffffffff
(1721324724.695490) can0 18F0090B#fb6860077e077d7d
(1721324724.696040) can0 0CEF0B2A#7ecdce00fcfaff11
(1721324724.697337) can0 0CF00400#0e7d7d0000000f7d
(1721324724.699292) can0 0CF00203#cc0000fff00000ff
(1721324724.699872) can0 10F007D1#ffff0fffffffffff
(1721324724.700448) can0 08F06203#ffffffff7f7dffff
(1721324724.701028) can0 0CF02903#708a7dffffffffff
(1721324724.701616) can0 0CF00A00#00000000ffffffff
(1721324724.702188) can0 18A9E8D1#fdfffffffffffffd
(1721324724.702768) can0 18FEF100#ff0000fcff001fcf
(1721324724.703758) can0 18FEF111#c700000700ffffc0
(1721324724.704332) can0 0CFF0211#fc602d00000000ff
(1721324724.705456) can0 08FE6E0B#0000000000000000
(1721324724.706021) can0 0CF00300#d3ff00ffff1f647d
(1721324724.706584) can0 0CF02F2A#04f8fff0ffffffff
(1721324724.707146) can0 18F0090B#fb6860077e077d7d
(1721324724.707729) can0 0CFF83AE#fffffcffffffffff
(1721324724.708292) can0 18F0010B#000013ffff410b3f
(1721324724.709401) can0 0CF00203#cc0000fff00000ff
(1721324724.709992) can0 08F06203#ffffffff7f7dffff
(1721324724.710573) can0 0CF02903#708a7dffffffffff
(1721324724.711153) can0 18FF5400#ffff11f1fcffffff
(1721324724.711737) can0 0CFF3F17#fffffffffffaffff
(1721324724.712312) can0 18FECA2A#00ff00000000ffff
(1721324724.712902) can0 0CFF8317#3fffe7ffffffffff
(1721324724.713474) can0 18FEDF00#7da0287d7dfffff0
(1721324724.714046) can0 0CFF0211#fc602d00000000ff
(1721324724.714624) can0 18FE5817#ffffffff00000000
(1721324724.715199) can0 18F00111#ffffffff00ffffff
(1721324724.715763) can0 0CEF0B2A#7ecdce00fcfaff82
(1721324724.716312) can0 18F0090B#fb6860077e077d7d
(1721324724.716883) can0 18FEE000#cf060000cd060000
(1721324724.717463) can0 18FEBF0B#00007d7d7d7dffff
(1721324724.718043) can0 0CF00400#0e7d7d0000000f7d
(1721324724.718615) can0 18FE4F0B#c100ffffffffffff
(1721324724.719180) can0 18FEF011#fffffffffff1ccff
(1721324724.719758) can0 0CF00203#cc0000fff00000ff
(1721324724.720336) can0 18FDC40B#1c0019ffffffffff
(1721324724.720917) can0 08F06203#ffffffff7f7dffff
(1721324724.721502) can0 1CEBFF00#07002affffffffff
(1721324724.722068) can0 0CF02903#708a7dffffffffff
(1721324724.723776) can0 0CF00311#dd0000ffffffffff
(1721324724.724355) can0 0CFF0211#fc602d00000000ff
(1721324724.725520) can0 08FE6E0B#0000000000000000
(1721324724.726088) can0 0CF00300#d3ff00ffff1f647d
(1721324724.726645) can0 18F0090B#fb6860077e077d7d
(1721324724.727231) can0 18FC9600#0000ffffffffffff
(1721324724.727802) can0 18FEEE00#40ff1b25ffffffff
(1721324724.728374) can0 18F0000F#f07d7df30fffff59
(1721324724.729414) can0 0CF00203#cc0000fff00000ff
(1721324724.730008) can0 08F06203#ffffffff7f7dffff
(1721324724.730587) can0 0CF02903#708a7dffffffffff
(1721324724.731160) can0 18FEDF00#7da0287d7dfffff0
(1721324724.733172) can0 18FF4003#7cfc3f00fa0345fc
(1721324724.733745) can0 0CFF0211#fc602d00000000ff
(1721324724.734328) can0 18FDA403#ffffffffffffffff
(1721324724.734903) can0 18F00503#7d00007d204e2046
(1721324724.735462) can0 18F0090B#fb6860077e077d7d
(1721324724.736015) can0 0CEF0B2A#7ecdce00fcfaff93
(1721324724.736592) can0 0CF0D300#007df0fbfbff14ff
(1721324724.737151) can0 18FE4A03#ffdd3f7d0f37f8ff
(1721324724.737731) can0 0CF00400#0e7d7d0000000f7d
(1721324724.738304) can0 0CF0FA03#ffffffff03fcffff
(1721324724.738901) can0 18FF4103#2e09de0dffffffff
(1721324724.739491) can0 18FFA003#fc3f00fcffff3b7e
(1721324724.740081) can0 10F007E8#00ff00ffffffffff
(1721324724.740667) can0 18FAD303#ffffffffffffffff
(1721324724.741250) can0 0CFF2817#ffc03ffffaffffff
(1721324724.741826) can0 0CF00203#cc0000fff00000ff
(1721324724.742404) can0 0CFF2B17#fffffffffffdffff
(1721324724.742980) can0 08F06203#ffffffff7f7dffff
(1721324724.743527) can0 18FEE617#002e110748277f79
(1721324724.744093) can0 0CF02903#708a7dffffffffff
(1721324724.744663) can0 0CFF0211#fc602d00000000ff
(1721324724.745795) can0 0CF00300#d3ff00ffff1f647d
(1721324724.746378) can0 08FE6E0B#0000000000000000
(1721324724.746943) can0 18F0090B#fb6860077e0f7d7d
(1721324724.749324) can0 0CF00203#cc0000fff00000ff
(1721324724.749909) can0 08F06203#ffffffff7f7dffff
(1721324724.750483) can0 0CF02903#708a7dffffffffff
(1721324724.751063) can0 18FF5400#ffff11f1fcffffff
(1721324724.751639) can0 18FEDF00#7da0287d7dfffff0
(1721324724.752219) can0 10F007D1#ffff0fffffffffff
(1721324724.752812) can0 0CF00A00#00000000ffffffff
(1721324724.753403) can0 18FEF200#0000fffa2103faff
(1721324724.753965) can0 0CFF0211#fc602d00000000ff
(1721324724.754541) can0 18FEE400#007fffff007fffff
(1721324724.755411) can0 18F0090B#fb6860077e0f7d7d
(1721324724.755963) can0 0CEF0B2A#7ecdce00fcfafff4
(1721324724.756525) can0 0CF02F2A#04f8fff0ffffffff
(1721324724.757421) can0 0CF00400#0e7d7d0000000f7d
(1721324724.758008) can0 0CFF83AE#fffffcffffffffff
(1721324724.759358) can0 0CF00203#cc0000fff00000ff
(1721324724.759962) can0 08F06203#ffffffff7f7dffff
(1721324724.760533) can0 0CF02903#708a7dffffffffff
(1721324724.761116) can0 0C0A002A#c0ffffffffffffff
(1721324724.761708) can0 18FEF700#ffffffffe600ffff
(1721324724.762294) can0 18FD0700#43003c3ffffff3ff
(1721324724.763745) can0 18FE5BE8#43fffffcfcff01ff
(1721324724.764313) can0 0CFF0211#fc602d00000000ff
(1721324724.764872) can0 18FF21E8#0f0f000340f0ff30
(1721324724.765453) can0 08FE6E0B#0000000000000000
(1721324724.766024) can0 0CF00300#d3ff00ffff1f647d
(1721324724.766588) can0 18F0090B#fb6860077e0f7d7d
(1721324724.769328) can0 0CF00203#cc0000fff00000ff
(1721324724.769920) can0 08F06203#ffffffff7f7dffff
(1721324724.770497) can0 0CF02903#708a7dffffffffff
(1721324724.771069) can0 18FEDF00#7da0287d7dfffff0
(1721324724.771657) can0 18F00100#ffffffffffffffff
(1721324724.772241) can0 18FEBD00#00f0ffffffffffff
(1721324724.773559) can0 0CF00311#dd0000ffffffffff
(1721324724.774137) can0 0CFF0211#fc602d00000000ff
(1721324724.775480) can0 18F0090B#fb6860077e0f7d7d
(1721324724.776027) can0 0CEF0B2A#7ecdce00fcfaff85
(1721324724.777400) can0 0CF00400#0e7d7d0000000f7d
(1721324724.779320) can0 0CF00203#cc0000fff00000ff
(1721324724.779918) can0 08F06203#ffffffff7f7dffff
(1721324724.780493) can0 0CF02903#708a7dffffffffff
(1721324724.781085) can0 18FEF000#ffffffffffffffff
(1721324724.781668) can0 0CFF0B17#ff0000003ff8ffff
(1721324724.783041) can0 18FF4003#7cfc3f00fa0345fc
(1721324724.783754) can0 0CFF0211#fc602d00000000ff
(1721324724.785377) can0 08FE6E0B#0000000000000000
(1721324724.785943) can0 10FE6F2A#ffff00d0007d00ff
(1721324724.786509) can0 0CF00300#d3ff00ffff1f647d
(1721324724.787072) can0 18F0090B#fb6860077e0f7d7d
(1721324724.789305) can0 0CF00203#cc0000fff00000ff
(1721324724.789894) can0 10F007E8#00ff00ffffffffff
(1721324724.790468) can0 08F06203#ffffffff7f7dffff
(1721324724.791045) can0 18FF102A#ff00ffff00403ff3
(1721324724.791610) can0 0CF02903#708a7dffffffffff
(1721324724.792188) can0 0CFF2B17#fffffffffffdffff
(1721324724.792771) can0 18FF5400#ffff11f1fcffffff
(1721324724.793341) can0 18E00017#ffffff3ffff0ffff
(1721324724.793915) can0 0CFF0211#fc602d00000000ff
(1721324724.794493) can0 18FEDF00#7da0287d7dfffff0
(1721324724.795482) can0 18F0090B#fb6860077e0f7d7d
(1721324724.796034) can0 0CEF0B2A#7ecdce00fcfaff96
(1721324724.797397) can0 0CF00400#0e7d7d0000000f7d
(1721324724.799322) can0 0CF00203#cc0000fff00000ff
(1721324724.799913) can0 08F06203#ffffffff7f7dffff
(1721324724.800493) can0 0CF02903#708a7dffffffffff
(1721324724.801137) can0 0CF00A00#00000000ffffffff
(1721324724.801711) can0 18A9E8D1#fdfffffffffffffd
(1721324724.802289) can0 18FEF100#ff0000fcff001fcf
(1721324724.802883) can0 18E0FF00#00ffffffffffffff
(1721324724.803651) can0 10F007D1#ffff0fffffffffff
(1721324724.804222) can0 0CFF0211#fc602d00000000ff
(1721324724.804801) can0 18FEF111#c700000700ffffc0
(1721324724.805462) can0 08FE6E0B#0000000000000000
(1721324724.806031) can0 0CF00300#d3ff00ffff1f647d
(1721324724.806594) can0 0CF02F2A#04f8fff0ffffffff
(1721324724.807158) can0 18F0090B#fb6860077e0f7d7d
(1721324724.807742) can0 0CFF83AE#fffffcffffffffff
(1721324724.808306) can0 18F0010B#000013ffff410b3f
(1721324724.809372) can0 0CF00203#cc0000fff00000ff
